time;V(/Bias_Out)1;V(/VoutN)1;V(/VoutP)1;
0,100002;2,5063;2,49561;2,49675;
0,100012;2,50608;2,49548;2,49662;
0,100022;2,50642;2,4957;2,49684;
0,100032;2,50651;2,49591;2,49705;
0,100042;2,50642;2,49573;2,49687;
0,100052;2,50615;2,49555;2,49669;
0,100062;2,50641;2,49569;2,49684;
0,100072;2,50643;2,49583;2,49697;
0,100082;2,50634;2,49564;2,49679;
0,100092;2,50609;2,49548;2,49663;
0,100102;2,50644;2,49571;2,49686;
0,100112;2,50654;2,49594;2,49709;
0,100122;2,50645;2,49576;2,49691;
0,100132;2,50617;2,49557;2,49672;
0,100142;2,50639;2,49567;2,49683;
0,100152;2,50638;2,49577;2,49693;
0,100162;2,5063;2,4956;2,49676;
0,100172;2,50608;2,49547;2,49663;
0,100182;2,50642;2,49569;2,49686;
0,100192;2,50651;2,4959;2,49707;
0,100202;2,50643;2,49573;2,49689;
0,100212;2,50615;2,49554;2,49671;
0,100222;2,5064;2,49568;2,49685;
0,100232;2,50642;2,4958;2,49698;
0,100242;2,50633;2,49562;2,49679;
0,100252;2,50609;2,49547;2,49664;
0,100262;2,50644;2,4957;2,49688;
0,100272;2,50654;2,49592;2,4971;
0,100282;2,50645;2,49575;2,49693;
0,100292;2,50617;2,49556;2,49674;
0,100302;2,50639;2,49566;2,49684;
0,100312;2,50637;2,49575;2,49694;
0,100322;2,5063;2,49559;2,49678;
0,100332;2,50608;2,49546;2,49665;
0,100342;2,50642;2,49568;2,49687;
0,100352;2,50651;2,49588;2,49707;
0,100362;2,50642;2,49571;2,4969;
0,100372;2,50615;2,49552;2,49672;
0,100382;2,50641;2,49567;2,49686;
0,100392;2,50643;2,49581;2,497;
0,100402;2,50633;2,49562;2,49682;
0,100412;2,50609;2,49546;2,49666;
0,100422;2,50644;2,49569;2,49689;
0,100432;2,50654;2,49591;2,49711;
0,100442;2,50645;2,49574;2,49694;
0,100452;2,50617;2,49554;2,49675;
0,100462;2,50639;2,49565;2,49686;
0,100472;2,50638;2,49575;2,49695;
0,100482;2,5063;2,49558;2,49679;
0,100492;2,50608;2,49545;2,49666;
0,100502;2,50642;2,49567;2,49688;
0,100512;2,50651;2,49588;2,49709;
0,100522;2,50643;2,49571;2,49692;
0,100532;2,50615;2,49552;2,49673;
0,100542;2,5064;2,49566;2,49687;
0,100552;2,50642;2,49578;2,497;
0,100562;2,50633;2,4956;2,49682;
0,100572;2,50609;2,49545;2,49667;
0,100582;2,50644;2,49568;2,4969;
0,100592;2,50654;2,4959;2,49713;
0,100602;2,50645;2,49573;2,49695;
0,100612;2,50617;2,49554;2,49676;
0,100622;2,50639;2,49564;2,49687;
0,100632;2,50637;2,49573;2,49696;
0,100642;2,5063;2,49557;2,4968;
0,100652;2,50608;2,49544;2,49667;
0,100662;2,50642;2,49566;2,49689;
0,100672;2,50651;2,49586;2,4971;
0,100682;2,50642;2,49569;2,49692;
0,100692;2,50615;2,4955;2,49674;
0,100702;2,50641;2,49565;2,49689;
0,100712;2,50643;2,49578;2,49702;
0,100722;2,50633;2,4956;2,49684;
0,100732;2,50609;2,49544;2,49668;
0,100742;2,50644;2,49567;2,49691;
0,100752;2,50654;2,49589;2,49714;
0,100762;2,50645;2,49572;2,49696;
0,100772;2,50617;2,49552;2,49677;
0,100782;2,50639;2,49563;2,49688;
0,100792;2,50638;2,49573;2,49698;
0,100802;2,5063;2,49556;2,49681;
0,100812;2,50608;2,49543;2,49668;
0,100822;2,50642;2,49565;2,4969;
0,100832;2,50651;2,49586;2,49712;
0,100842;2,50643;2,49569;2,49694;
0,100852;2,50615;2,4955;2,49676;
0,100862;2,5064;2,49564;2,49689;
0,100872;2,50642;2,49576;2,49702;
0,100882;2,50633;2,49558;2,49684;
0,100892;2,50609;2,49543;2,49669;
0,100902;2,50644;2,49566;2,49692;
0,100912;2,50654;2,49588;2,49715;
0,100922;2,50645;2,49571;2,49697;
0,100932;2,50617;2,49552;2,49678;
0,100942;2,50639;2,49562;2,49689;
0,100952;2,50637;2,49571;2,49698;
0,100962;2,5063;2,49555;2,49682;
0,100972;2,50608;2,49542;2,49669;
0,100982;2,50642;2,49564;2,49691;
0,100992;2,50651;2,49585;2,49712;
0,101002;2,50642;2,49567;2,49694;
0,101012;2,50615;2,49549;2,49676;
0,101022;2,50641;2,49563;2,49691;
0,101032;2,50643;2,49577;2,49704;
0,101042;2,50633;2,49558;2,49686;
0,101052;2,50609;2,49542;2,4967;
0,101062;2,50644;2,49565;2,49693;
0,101072;2,50654;2,49587;2,49716;
0,101082;2,50645;2,4957;2,49698;
0,101092;2,50617;2,49551;2,49679;
0,101102;2,50639;2,49561;2,4969;
0,101112;2,50638;2,49571;2,497;
0,101122;2,5063;2,49554;2,49683;
0,101132;2,50608;2,49541;2,4967;
0,101142;2,50642;2,49563;2,49692;
0,101152;2,50651;2,49584;2,49713;
0,101162;2,50643;2,49567;2,49696;
0,101172;2,50615;2,49548;2,49678;
0,101182;2,5064;2,49562;2,49691;
0,101192;2,50642;2,49575;2,49704;
0,101202;2,50633;2,49557;2,49686;
0,101212;2,50609;2,49541;2,49671;
0,101222;2,50644;2,49564;2,49694;
0,101232;2,50654;2,49587;2,49717;
0,101242;2,50645;2,49569;2,49699;
0,101252;2,50617;2,4955;2,4968;
0,101262;2,50639;2,4956;2,49691;
0,101272;2,50637;2,4957;2,497;
0,101282;2,5063;2,49554;2,49684;
0,101292;2,50608;2,49541;2,49671;
0,101302;2,50642;2,49562;2,49693;
0,101312;2,50651;2,49583;2,49714;
0,101322;2,50642;2,49565;2,49696;
0,101332;2,50615;2,49547;2,49678;
0,101342;2,50641;2,49561;2,49693;
0,101352;2,50643;2,49575;2,49706;
0,101362;2,50633;2,49557;2,49688;
0,101372;2,50609;2,49541;2,49672;
0,101382;2,50644;2,49564;2,49695;
0,101392;2,50654;2,49586;2,49718;
0,101402;2,50645;2,49568;2,497;
0,101412;2,50617;2,49549;2,49681;
0,101422;2,50639;2,4956;2,49692;
0,101432;2,50638;2,4957;2,49702;
0,101442;2,5063;2,49553;2,49685;
0,101452;2,50608;2,4954;2,49672;
0,101462;2,50642;2,49562;2,49694;
0,101472;2,50651;2,49583;2,49715;
0,101482;2,50643;2,49565;2,49698;
0,101492;2,50615;2,49547;2,49679;
0,101502;2,5064;2,49561;2,49693;
0,101512;2,50642;2,49573;2,49706;
0,101522;2,50633;2,49555;2,49688;
0,101532;2,50609;2,4954;2,49673;
0,101542;2,50644;2,49563;2,49696;
0,101552;2,50654;2,49585;2,49718;
0,101562;2,50645;2,49568;2,49701;
0,101572;2,50617;2,49549;2,49682;
0,101582;2,50639;2,49559;2,49692;
0,101592;2,50637;2,49568;2,49702;
0,101602;2,5063;2,49552;2,49686;
0,101612;2,50608;2,49539;2,49673;
0,101622;2,50642;2,49561;2,49695;
0,101632;2,50651;2,49582;2,49715;
0,101642;2,50642;2,49564;2,49698;
0,101652;2,50615;2,49546;2,4968;
0,101662;2,50641;2,4956;2,49694;
0,101672;2,50643;2,49574;2,49708;
0,101682;2,50633;2,49555;2,49689;
0,101692;2,50609;2,49539;2,49674;
0,101702;2,50644;2,49562;2,49697;
0,101712;2,50654;2,49585;2,49719;
0,101722;2,50645;2,49567;2,49702;
0,101732;2,50617;2,49548;2,49682;
0,101742;2,50639;2,49558;2,49693;
0,101752;2,50638;2,49568;2,49703;
0,101762;2,5063;2,49552;2,49687;
0,101772;2,50608;2,49539;2,49673;
0,101782;2,50642;2,49561;2,49695;
0,101792;2,50651;2,49582;2,49717;
0,101802;2,50643;2,49564;2,49699;
0,101812;2,50615;2,49545;2,49681;
0,101822;2,5064;2,49559;2,49695;
0,101832;2,50642;2,49572;2,49708;
0,101842;2,50633;2,49554;2,49689;
0,101852;2,50609;2,49539;2,49674;
0,101862;2,50644;2,49562;2,49697;
0,101872;2,50654;2,49584;2,4972;
0,101882;2,50645;2,49567;2,49702;
0,101892;2,50617;2,49547;2,49683;
0,101902;2,50639;2,49558;2,49694;
0,101912;2,50637;2,49567;2,49703;
0,101922;2,5063;2,49551;2,49687;
0,101932;2,50608;2,49538;2,49674;
0,101942;2,50642;2,4956;2,49696;
0,101952;2,50651;2,49581;2,49717;
0,101962;2,50642;2,49563;2,49699;
0,101972;2,50615;2,49545;2,49681;
0,101982;2,50641;2,49559;2,49695;
0,101992;2,50643;2,49572;2,49709;
0,102002;2,50633;2,49554;2,49691;
0,102012;2,50609;2,49538;2,49675;
0,102022;2,50644;2,49561;2,49698;
0,102032;2,50654;2,49584;2,4972;
0,102042;2,50645;2,49566;2,49703;
0,102052;2,50617;2,49547;2,49684;
0,102062;2,50639;2,49557;2,49694;
0,102072;2,50638;2,49567;2,49704;
0,102082;2,5063;2,49551;2,49688;
0,102092;2,50608;2,49538;2,49675;
0,102102;2,50642;2,4956;2,49697;
0,102112;2,50651;2,49581;2,49718;
0,102122;2,50642;2,49563;2,497;
0,102132;2,50615;2,49544;2,49682;
0,102142;2,5064;2,49558;2,49696;
0,102152;2,50642;2,49571;2,49709;
0,102162;2,50633;2,49553;2,49691;
0,102172;2,50609;2,49538;2,49675;
0,102182;2,50644;2,49561;2,49698;
0,102192;2,50654;2,49583;2,49721;
0,102202;2,50645;2,49566;2,49703;
0,102212;2,50617;2,49546;2,49684;
0,102222;2,50639;2,49557;2,49695;
0,102232;2,50637;2,49567;2,49704;
0,102242;2,5063;2,4955;2,49688;
0,102252;2,50608;2,49537;2,49675;
0,102262;2,50642;2,49559;2,49697;
0,102272;2,50651;2,4958;2,49718;
0,102282;2,50642;2,49562;2,497;
0,102292;2,50615;2,49544;2,49682;
0,102302;2,50641;2,49558;2,49696;
0,102312;2,50643;2,49572;2,4971;
0,102322;2,50633;2,49553;2,49691;
0,102332;2,50609;2,49537;2,49676;
0,102342;2,50644;2,49561;2,49699;
0,102352;2,50654;2,49583;2,49721;
0,102362;2,50645;2,49565;2,49704;
0,102372;2,50617;2,49546;2,49685;
0,102382;2,50639;2,49557;2,49695;
0,102392;2,50638;2,49566;2,49705;
0,102402;2,5063;2,4955;2,49689;
0,102412;2,50608;2,49537;2,49676;
0,102422;2,50642;2,49559;2,49697;
0,102432;2,50651;2,4958;2,49719;
0,102442;2,50642;2,49562;2,49701;
0,102452;2,50615;2,49544;2,49683;
0,102462;2,5064;2,49558;2,49697;
0,102472;2,50642;2,49571;2,4971;
0,102482;2,50633;2,49552;2,49691;
0,102492;2,50609;2,49537;2,49676;
0,102502;2,50644;2,4956;2,49699;
0,102512;2,50654;2,49582;2,49721;
0,102522;2,50645;2,49565;2,49704;
0,102532;2,50617;2,49546;2,49685;
0,102542;2,50639;2,49556;2,49695;
0,102552;2,50637;2,49566;2,49705;
0,102562;2,5063;2,4955;2,49689;
0,102572;2,50608;2,49537;2,49676;
0,102582;2,50642;2,49558;2,49698;
0,102592;2,50651;2,49579;2,49719;
0,102602;2,50642;2,49562;2,49701;
0,102612;2,50615;2,49543;2,49683;
0,102622;2,50641;2,49558;2,49697;
0,102632;2,50643;2,49571;2,4971;
0,102642;2,50633;2,49553;2,49692;
0,102652;2,50609;2,49537;2,49676;
0,102662;2,50644;2,4956;2,497;
0,102672;2,50654;2,49582;2,49722;
0,102682;2,50645;2,49565;2,49704;
0,102692;2,50617;2,49546;2,49685;
0,102702;2,50639;2,49556;2,49696;
0,102712;2,50638;2,49566;2,49706;
0,102722;2,5063;2,49549;2,49689;
0,102732;2,50608;2,49536;2,49676;
0,102742;2,50642;2,49558;2,49698;
0,102752;2,50651;2,49579;2,49719;
0,102762;2,50642;2,49562;2,49702;
0,102772;2,50615;2,49543;2,49683;
0,102782;2,50641;2,49557;2,49697;
0,102792;2,50642;2,4957;2,4971;
0,102802;2,50633;2,49552;2,49692;
0,102812;2,50609;2,49537;2,49676;
0,102822;2,50644;2,4956;2,497;
0,102832;2,50654;2,49582;2,49722;
0,102842;2,50645;2,49565;2,49705;
0,102852;2,50617;2,49545;2,49685;
0,102862;2,50639;2,49556;2,49696;
0,102872;2,50637;2,49566;2,49706;
0,102882;2,5063;2,49549;2,49689;
0,102892;2,50608;2,49536;2,49676;
0,102902;2,50642;2,49558;2,49698;
0,102912;2,50651;2,49579;2,49719;
0,102922;2,50642;2,49561;2,49701;
0,102932;2,50615;2,49543;2,49683;
0,102942;2,50641;2,49557;2,49697;
0,102952;2,50643;2,49571;2,49711;
0,102962;2,50633;2,49552;2,49692;
0,102972;2,50609;2,49537;2,49677;
0,102982;2,50644;2,4956;2,497;
0,102992;2,50654;2,49582;2,49722;
0,103002;2,50645;2,49564;2,49705;
0,103012;2,50617;2,49545;2,49685;
0,103022;2,50639;2,49556;2,49696;
0,103032;2,50638;2,49566;2,49706;
0,103042;2,5063;2,49549;2,49689;
0,103052;2,50608;2,49536;2,49676;
0,103062;2,50642;2,49558;2,49698;
0,103072;2,50651;2,49579;2,49719;
0,103082;2,50642;2,49561;2,49702;
0,103092;2,50615;2,49543;2,49683;
0,103102;2,50641;2,49557;2,49697;
0,103112;2,50642;2,4957;2,4971;
0,103122;2,50633;2,49552;2,49692;
0,103132;2,50609;2,49536;2,49677;
0,103142;2,50644;2,4956;2,497;
0,103152;2,50654;2,49582;2,49722;
0,103162;2,50645;2,49564;2,49705;
0,103172;2,50617;2,49545;2,49686;
0,103182;2,50639;2,49556;2,49696;
0,103192;2,50637;2,49565;2,49706;
0,103202;2,5063;2,49549;2,49689;
0,103212;2,50608;2,49536;2,49676;
0,103222;2,50642;2,49558;2,49698;
0,103232;2,50651;2,49579;2,49719;
0,103242;2,50642;2,49561;2,49702;
0,103252;2,50615;2,49543;2,49683;
0,103262;2,50641;2,49557;2,49697;
0,103272;2,50642;2,4957;2,49711;
0,103282;2,50633;2,49552;2,49692;
0,103292;2,50609;2,49536;2,49677;
0,103302;2,50644;2,4956;2,497;
0,103312;2,50654;2,49582;2,49722;
0,103322;2,50645;2,49564;2,49705;
0,103332;2,50617;2,49545;2,49685;
0,103342;2,50639;2,49556;2,49696;
0,103352;2,50638;2,49566;2,49706;
0,103362;2,5063;2,49549;2,49689;
0,103372;2,50608;2,49536;2,49676;
0,103382;2,50642;2,49558;2,49698;
0,103392;2,50651;2,49579;2,49719;
0,103402;2,50642;2,49562;2,49702;
0,103412;2,50615;2,49543;2,49683;
0,103422;2,50641;2,49557;2,49697;
0,103432;2,50642;2,4957;2,4971;
0,103442;2,50633;2,49552;2,49692;
0,103452;2,50609;2,49536;2,49677;
0,103462;2,50644;2,4956;2,497;
0,103472;2,50654;2,49582;2,49722;
0,103482;2,50645;2,49564;2,49705;
0,103492;2,50617;2,49545;2,49685;
0,103502;2,50639;2,49556;2,49696;
0,103512;2,50638;2,49566;2,49706;
0,103522;2,5063;2,49549;2,49689;
0,103532;2,50608;2,49536;2,49676;
0,103542;2,50642;2,49558;2,49698;
0,103552;2,50651;2,49579;2,49719;
0,103562;2,50642;2,49562;2,49701;
0,103572;2,50615;2,49543;2,49683;
0,103582;2,50641;2,49557;2,49697;
0,103592;2,50642;2,49571;2,4971;
0,103602;2,50633;2,49552;2,49692;
0,103612;2,50609;2,49537;2,49676;
0,103622;2,50644;2,4956;2,497;
0,103632;2,50654;2,49582;2,49722;
0,103642;2,50645;2,49565;2,49704;
0,103652;2,50617;2,49545;2,49685;
0,103662;2,50639;2,49556;2,49696;
0,103672;2,50638;2,49566;2,49706;
0,103682;2,5063;2,49549;2,49689;
0,103692;2,50608;2,49536;2,49676;
0,103702;2,50642;2,49558;2,49698;
0,103712;2,50651;2,49579;2,49719;
0,103722;2,50642;2,49562;2,49701;
0,103732;2,50615;2,49543;2,49683;
0,103742;2,50641;2,49557;2,49697;
0,103752;2,50642;2,49571;2,4971;
0,103762;2,50633;2,49552;2,49692;
0,103772;2,50609;2,49537;2,49676;
0,103782;2,50644;2,4956;2,49699;
0,103792;2,50654;2,49582;2,49722;
0,103802;2,50645;2,49565;2,49704;
0,103812;2,50617;2,49546;2,49685;
0,103822;2,50639;2,49556;2,49695;
0,103832;2,50638;2,49566;2,49705;
0,103842;2,5063;2,4955;2,49689;
0,103852;2,50608;2,49537;2,49676;
0,103862;2,50642;2,49559;2,49698;
0,103872;2,50651;2,49579;2,49718;
0,103882;2,50642;2,49562;2,49701;
0,103892;2,50615;2,49544;2,49682;
0,103902;2,50641;2,49558;2,49697;
0,103912;2,50642;2,49571;2,4971;
0,103922;2,50633;2,49553;2,49691;
0,103932;2,50609;2,49537;2,49676;
0,103942;2,50644;2,4956;2,49699;
0,103952;2,50654;2,49583;2,49721;
0,103962;2,50645;2,49565;2,49704;
0,103972;2,50617;2,49546;2,49685;
0,103982;2,50639;2,49557;2,49695;
0,103992;2,50638;2,49566;2,49705;
0,104002;2,5063;2,4955;2,49688;
0,104012;2,50608;2,49537;2,49675;
0,104022;2,50642;2,49559;2,49697;
0,104032;2,50651;2,4958;2,49718;
0,104042;2,50642;2,49562;2,49701;
0,104052;2,50615;2,49544;2,49682;
0,104062;2,50641;2,49558;2,49696;
0,104072;2,50642;2,49571;2,49709;
0,104082;2,50633;2,49553;2,49691;
0,104092;2,50609;2,49537;2,49675;
0,104102;2,50644;2,49561;2,49699;
0,104112;2,50654;2,49583;2,49721;
0,104122;2,50645;2,49565;2,49703;
0,104132;2,50617;2,49546;2,49684;
0,104142;2,50639;2,49557;2,49695;
0,104152;2,50638;2,49567;2,49704;
0,104162;2,5063;2,4955;2,49688;
0,104172;2,50608;2,49537;2,49675;
0,104182;2,50642;2,49559;2,49697;
0,104192;2,50651;2,4958;2,49718;
0,104202;2,50642;2,49563;2,497;
0,104212;2,50615;2,49544;2,49682;
0,104222;2,50641;2,49558;2,49696;
0,104232;2,50642;2,49572;2,49709;
0,104242;2,50633;2,49553;2,49691;
0,104252;2,50609;2,49538;2,49675;
0,104262;2,50644;2,49561;2,49698;
0,104272;2,50654;2,49583;2,4972;
0,104282;2,50645;2,49566;2,49703;
0,104292;2,50617;2,49547;2,49684;
0,104302;2,50639;2,49557;2,49694;
0,104312;2,50638;2,49567;2,49704;
0,104322;2,5063;2,49551;2,49688;
0,104332;2,50608;2,49538;2,49674;
0,104342;2,50642;2,4956;2,49696;
0,104352;2,50651;2,49581;2,49717;
0,104362;2,50642;2,49563;2,497;
0,104372;2,50615;2,49545;2,49681;
0,104382;2,50641;2,49559;2,49695;
0,104392;2,50642;2,49572;2,49708;
0,104402;2,50633;2,49554;2,4969;
0,104412;2,50609;2,49538;2,49674;
0,104422;2,50644;2,49561;2,49698;
0,104432;2,50654;2,49584;2,4972;
0,104442;2,50645;2,49566;2,49702;
0,104452;2,50617;2,49547;2,49683;
0,104462;2,50639;2,49558;2,49694;
0,104472;2,50638;2,49568;2,49703;
0,104482;2,5063;2,49551;2,49687;
0,104492;2,50608;2,49538;2,49674;
0,104502;2,50642;2,4956;2,49696;
0,104512;2,50651;2,49581;2,49717;
0,104522;2,50642;2,49564;2,49699;
0,104532;2,50615;2,49545;2,49681;
0,104542;2,50641;2,49559;2,49695;
0,104552;2,50642;2,49573;2,49708;
0,104562;2,50633;2,49554;2,49689;
0,104572;2,50609;2,49539;2,49674;
0,104582;2,50644;2,49562;2,49697;
0,104592;2,50654;2,49584;2,49719;
0,104602;2,50645;2,49567;2,49702;
0,104612;2,50617;2,49548;2,49682;
0,104622;2,50639;2,49558;2,49693;
0,104632;2,50638;2,49568;2,49703;
0,104642;2,5063;2,49552;2,49686;
0,104652;2,50608;2,49539;2,49673;
0,104662;2,50642;2,49561;2,49695;
0,104672;2,50651;2,49582;2,49716;
0,104682;2,50642;2,49564;2,49698;
0,104692;2,50615;2,49546;2,4968;
0,104702;2,50641;2,4956;2,49694;
0,104712;2,50642;2,49573;2,49707;
0,104722;2,50633;2,49555;2,49689;
0,104732;2,50609;2,49539;2,49673;
0,104742;2,50644;2,49563;2,49696;
0,104752;2,50654;2,49585;2,49718;
0,104762;2,50645;2,49567;2,49701;
0,104772;2,50617;2,49548;2,49682;
0,104782;2,50639;2,49559;2,49692;
0,104792;2,50638;2,49569;2,49702;
0,104802;2,5063;2,49552;2,49686;
0,104812;2,50608;2,49539;2,49672;
0,104822;2,50642;2,49561;2,49694;
0,104832;2,50651;2,49582;2,49715;
0,104842;2,50642;2,49565;2,49698;
0,104852;2,50615;2,49546;2,49679;
0,104862;2,50641;2,49561;2,49693;
0,104872;2,50642;2,49574;2,49706;
0,104882;2,50633;2,49556;2,49688;
0,104892;2,50609;2,4954;2,49672;
0,104902;2,50644;2,49563;2,49695;
0,104912;2,50654;2,49586;2,49718;
0,104922;2,50645;2,49568;2,497;
0,104932;2,50617;2,49549;2,49681;
0,104942;2,50639;2,4956;2,49692;
0,104952;2,50638;2,4957;2,49701;
0,104962;2,5063;2,49553;2,49685;
0,104972;2,50608;2,4954;2,49672;
0,104982;2,50642;2,49562;2,49694;
0,104992;2,50651;2,49583;2,49714;
0,105002;2,50642;2,49566;2,49697;
0,105012;2,50615;2,49547;2,49678;
0,105022;2,50641;2,49561;2,49692;
0,105032;2,50642;2,49574;2,49705;
0,105042;2,50633;2,49556;2,49687;
0,105052;2,50609;2,49541;2,49672;
0,105062;2,50644;2,49564;2,49695;
0,105072;2,50654;2,49586;2,49717;
0,105082;2,50645;2,49569;2,49699;
0,105092;2,50617;2,4955;2,4968;
0,105102;2,50639;2,4956;2,49691;
0,105112;2,50638;2,4957;2,497;
0,105122;2,5063;2,49554;2,49684;
0,105132;2,50608;2,49541;2,49671;
0,105142;2,50642;2,49563;2,49693;
0,105152;2,50651;2,49584;2,49714;
0,105162;2,50642;2,49566;2,49696;
0,105172;2,50615;2,49548;2,49677;
0,105182;2,50641;2,49562;2,49691;
0,105192;2,50642;2,49575;2,49705;
0,105202;2,50633;2,49557;2,49686;
0,105212;2,50609;2,49542;2,49671;
0,105222;2,50644;2,49565;2,49694;
0,105232;2,50654;2,49587;2,49716;
0,105242;2,50645;2,4957;2,49698;
0,105252;2,50617;2,49551;2,49679;
0,105262;2,50639;2,49561;2,4969;
0,105272;2,50638;2,49571;2,497;
0,105282;2,5063;2,49555;2,49683;
0,105292;2,50608;2,49542;2,4967;
0,105302;2,50642;2,49564;2,49692;
0,105312;2,50651;2,49585;2,49713;
0,105322;2,50642;2,49567;2,49695;
0,105332;2,50615;2,49549;2,49677;
0,105342;2,5064;2,49563;2,49691;
0,105352;2,50642;2,49576;2,49704;
0,105362;2,50633;2,49558;2,49685;
0,105372;2,50609;2,49542;2,4967;
0,105382;2,50644;2,49566;2,49693;
0,105392;2,50654;2,49588;2,49715;
0,105402;2,50645;2,4957;2,49697;
0,105412;2,50617;2,49551;2,49678;
0,105422;2,50639;2,49562;2,49689;
0,105432;2,50638;2,49572;2,49699;
0,105442;2,5063;2,49556;2,49682;
0,105452;2,50608;2,49543;2,49669;
0,105462;2,50642;2,49564;2,49691;
0,105472;2,50651;2,49585;2,49712;
0,105482;2,50642;2,49568;2,49694;
0,105492;2,50615;2,4955;2,49676;
0,105502;2,5064;2,49564;2,49689;
0,105512;2,50642;2,49577;2,49702;
0,105522;2,50633;2,49559;2,49684;
0,105532;2,50609;2,49543;2,49669;
0,105542;2,50644;2,49566;2,49692;
0,105552;2,50654;2,49589;2,49714;
0,105562;2,50645;2,49571;2,49696;
0,105572;2,50617;2,49552;2,49677;
0,105582;2,50639;2,49563;2,49688;
0,105592;2,50638;2,49573;2,49698;
0,105602;2,5063;2,49556;2,49681;
0,105612;2,50608;2,49543;2,49668;
0,105622;2,50642;2,49565;2,4969;
0,105632;2,50651;2,49586;2,49711;
0,105642;2,50642;2,49569;2,49693;
0,105652;2,50615;2,49551;2,49674;
0,105662;2,5064;2,49565;2,49688;
0,105672;2,50642;2,49578;2,49701;
0,105682;2,50633;2,4956;2,49683;
0,105692;2,50609;2,49544;2,49668;
0,105702;2,50644;2,49567;2,49691;
0,105712;2,50654;2,4959;2,49713;
0,105722;2,50645;2,49572;2,49695;
0,105732;2,50617;2,49553;2,49676;
0,105742;2,50639;2,49564;2,49687;
0,105752;2,50638;2,49574;2,49696;
0,105762;2,5063;2,49557;2,4968;
0,105772;2,50608;2,49544;2,49667;
0,105782;2,50642;2,49566;2,49688;
0,105792;2,50651;2,49587;2,49709;
0,105802;2,50642;2,4957;2,49692;
0,105812;2,50615;2,49552;2,49673;
0,105822;2,5064;2,49566;2,49687;
0,105832;2,50642;2,49579;2,497;
0,105842;2,50633;2,49561;2,49682;
0,105852;2,50609;2,49545;2,49666;
0,105862;2,50644;2,49568;2,49689;
0,105872;2,50654;2,49591;2,49712;
0,105882;2,50645;2,49573;2,49694;
0,105892;2,50617;2,49554;2,49675;
0,105902;2,50639;2,49565;2,49685;
0,105912;2,50638;2,49575;2,49695;
