time;V(/Bias_Out)1;V(/VoutN)1;V(/VoutP)1;
0,100003;2,50619;2,49563;2,49676;
0,100013;2,50619;2,49563;2,49677;
0,100023;2,50619;2,49563;2,49677;
0,100033;2,50619;2,49563;2,49677;
0,100043;2,50619;2,49563;2,49677;
0,100053;2,50619;2,49563;2,49677;
0,100063;2,50619;2,49563;2,49677;
0,100073;2,50619;2,49563;2,49677;
0,100083;2,50619;2,49563;2,49677;
0,100093;2,50619;2,49562;2,49677;
0,100103;2,50619;2,49562;2,49677;
0,100113;2,50619;2,49562;2,49678;
0,100123;2,50619;2,49562;2,49678;
0,100133;2,50619;2,49562;2,49678;
0,100143;2,50619;2,49562;2,49678;
0,100153;2,50619;2,49562;2,49678;
0,100163;2,50619;2,49562;2,49678;
0,100173;2,50619;2,49562;2,49678;
0,100183;2,50619;2,49562;2,49678;
0,100193;2,50619;2,49562;2,49678;
0,100203;2,50619;2,49562;2,49678;
0,100213;2,50619;2,49562;2,49679;
0,100223;2,50619;2,49562;2,49679;
0,100233;2,50619;2,49562;2,49679;
0,100243;2,50619;2,49562;2,49679;
0,100253;2,50619;2,49561;2,49679;
0,100263;2,50619;2,49561;2,49679;
0,100273;2,50619;2,49561;2,49679;
0,100283;2,50619;2,49561;2,49679;
0,100293;2,50619;2,49561;2,49679;
0,100303;2,50619;2,49561;2,49679;
0,100313;2,50619;2,49561;2,49679;
0,100323;2,50619;2,49561;2,4968;
0,100333;2,50619;2,49561;2,4968;
0,100343;2,50619;2,49561;2,4968;
0,100353;2,50619;2,49561;2,4968;
0,100363;2,50619;2,49561;2,4968;
0,100373;2,50619;2,49561;2,4968;
0,100383;2,50619;2,49561;2,4968;
0,100393;2,50619;2,49561;2,4968;
0,100403;2,50619;2,49561;2,4968;
0,100413;2,50619;2,49561;2,4968;
0,100423;2,50619;2,49561;2,4968;
0,100433;2,50619;2,4956;2,49681;
0,100443;2,50619;2,4956;2,49681;
0,100453;2,50619;2,4956;2,49681;
0,100463;2,50619;2,4956;2,49681;
0,100473;2,50619;2,4956;2,49681;
0,100483;2,50619;2,4956;2,49681;
0,100493;2,50619;2,4956;2,49681;
0,100503;2,50619;2,4956;2,49681;
0,100513;2,50619;2,4956;2,49681;
0,100523;2,50619;2,4956;2,49681;
0,100533;2,50619;2,4956;2,49681;
0,100543;2,50619;2,4956;2,49682;
0,100553;2,50619;2,4956;2,49682;
0,100563;2,50619;2,4956;2,49682;
0,100573;2,50619;2,4956;2,49682;
0,100583;2,50619;2,4956;2,49682;
0,100593;2,50619;2,4956;2,49682;
0,100603;2,50619;2,4956;2,49682;
0,100613;2,50619;2,49559;2,49682;
0,100623;2,50619;2,49559;2,49682;
0,100633;2,50619;2,49559;2,49682;
0,100643;2,50619;2,49559;2,49682;
0,100653;2,50619;2,49559;2,49682;
0,100663;2,50619;2,49559;2,49683;
0,100673;2,50619;2,49559;2,49683;
0,100683;2,50619;2,49559;2,49683;
0,100693;2,50619;2,49559;2,49683;
0,100703;2,50619;2,49559;2,49683;
0,100713;2,50619;2,49559;2,49683;
0,100723;2,50619;2,49559;2,49683;
0,100733;2,50619;2,49559;2,49683;
0,100743;2,50619;2,49559;2,49683;
0,100753;2,50619;2,49559;2,49683;
0,100763;2,50619;2,49559;2,49683;
0,100773;2,50619;2,49559;2,49683;
0,100783;2,50619;2,49559;2,49683;
0,100793;2,50619;2,49559;2,49684;
0,100803;2,50619;2,49559;2,49684;
0,100813;2,50619;2,49558;2,49684;
0,100823;2,50619;2,49558;2,49684;
0,100833;2,50619;2,49558;2,49684;
0,100843;2,50619;2,49558;2,49684;
0,100853;2,50619;2,49558;2,49684;
0,100863;2,50619;2,49558;2,49684;
0,100873;2,50619;2,49558;2,49684;
0,100883;2,50619;2,49558;2,49684;
0,100893;2,50619;2,49558;2,49684;
0,100903;2,50619;2,49558;2,49684;
0,100913;2,50619;2,49558;2,49684;
0,100923;2,50619;2,49558;2,49685;
0,100933;2,50619;2,49558;2,49685;
0,100943;2,50619;2,49558;2,49685;
0,100953;2,50619;2,49558;2,49685;
0,100963;2,50619;2,49558;2,49685;
0,100973;2,50619;2,49558;2,49685;
0,100983;2,50619;2,49558;2,49685;
0,100993;2,50619;2,49558;2,49685;
0,101003;2,50619;2,49558;2,49685;
0,101013;2,50619;2,49558;2,49685;
0,101023;2,50619;2,49558;2,49685;
0,101033;2,50619;2,49557;2,49685;
0,101043;2,50619;2,49557;2,49685;
0,101053;2,50619;2,49557;2,49685;
0,101063;2,50619;2,49557;2,49686;
0,101073;2,50619;2,49557;2,49686;
0,101083;2,50619;2,49557;2,49686;
0,101093;2,50619;2,49557;2,49686;
0,101103;2,50619;2,49557;2,49686;
0,101113;2,50619;2,49557;2,49686;
0,101123;2,50619;2,49557;2,49686;
0,101133;2,50619;2,49557;2,49686;
0,101143;2,50619;2,49557;2,49686;
0,101153;2,50619;2,49557;2,49686;
0,101163;2,50619;2,49557;2,49686;
0,101173;2,50619;2,49557;2,49686;
0,101183;2,50619;2,49557;2,49686;
0,101193;2,50619;2,49557;2,49686;
0,101203;2,50619;2,49557;2,49686;
0,101213;2,50619;2,49557;2,49687;
0,101223;2,50619;2,49557;2,49687;
0,101233;2,50619;2,49557;2,49687;
0,101243;2,50619;2,49557;2,49687;
0,101253;2,50619;2,49557;2,49687;
0,101263;2,50619;2,49557;2,49687;
0,101273;2,50619;2,49556;2,49687;
0,101283;2,50619;2,49556;2,49687;
0,101293;2,50619;2,49556;2,49687;
0,101303;2,50619;2,49556;2,49687;
0,101313;2,50619;2,49556;2,49687;
0,101323;2,50619;2,49556;2,49687;
0,101333;2,50619;2,49556;2,49687;
0,101343;2,50619;2,49556;2,49687;
0,101353;2,50619;2,49556;2,49687;
0,101363;2,50619;2,49556;2,49687;
0,101373;2,50619;2,49556;2,49688;
0,101383;2,50619;2,49556;2,49688;
0,101393;2,50619;2,49556;2,49688;
0,101403;2,50619;2,49556;2,49688;
0,101413;2,50619;2,49556;2,49688;
0,101423;2,50619;2,49556;2,49688;
0,101433;2,50619;2,49556;2,49688;
0,101443;2,50619;2,49556;2,49688;
0,101453;2,50619;2,49556;2,49688;
0,101463;2,50619;2,49556;2,49688;
0,101473;2,50619;2,49556;2,49688;
0,101483;2,50619;2,49556;2,49688;
0,101493;2,50619;2,49556;2,49688;
0,101503;2,50619;2,49556;2,49688;
0,101513;2,50619;2,49556;2,49688;
0,101523;2,50619;2,49556;2,49688;
0,101533;2,50619;2,49556;2,49688;
0,101543;2,50619;2,49555;2,49689;
0,101553;2,50619;2,49555;2,49689;
0,101563;2,50619;2,49555;2,49689;
0,101573;2,50619;2,49555;2,49689;
0,101583;2,50619;2,49555;2,49689;
0,101593;2,50619;2,49555;2,49689;
0,101603;2,50619;2,49555;2,49689;
0,101613;2,50619;2,49555;2,49689;
0,101623;2,50619;2,49555;2,49689;
0,101633;2,50619;2,49555;2,49689;
0,101643;2,50619;2,49555;2,49689;
0,101653;2,50619;2,49555;2,49689;
0,101663;2,50619;2,49555;2,49689;
0,101673;2,50619;2,49555;2,49689;
0,101683;2,50619;2,49555;2,49689;
0,101693;2,50619;2,49555;2,49689;
0,101703;2,50619;2,49555;2,49689;
0,101713;2,50619;2,49555;2,49689;
0,101723;2,50619;2,49555;2,49689;
0,101733;2,50619;2,49555;2,49689;
0,101743;2,50619;2,49555;2,4969;
0,101753;2,50619;2,49555;2,4969;
0,101763;2,50619;2,49555;2,4969;
0,101773;2,50619;2,49555;2,4969;
0,101783;2,50619;2,49555;2,4969;
0,101793;2,50619;2,49555;2,4969;
0,101803;2,50619;2,49555;2,4969;
0,101813;2,50619;2,49555;2,4969;
0,101823;2,50619;2,49555;2,4969;
0,101833;2,50619;2,49555;2,4969;
0,101843;2,50619;2,49555;2,4969;
0,101853;2,50619;2,49555;2,4969;
0,101863;2,50619;2,49555;2,4969;
0,101873;2,50619;2,49554;2,4969;
0,101883;2,50619;2,49554;2,4969;
0,101893;2,50619;2,49554;2,4969;
0,101903;2,50619;2,49554;2,4969;
0,101913;2,50619;2,49554;2,4969;
0,101923;2,50619;2,49554;2,4969;
0,101933;2,50619;2,49554;2,4969;
0,101943;2,50619;2,49554;2,4969;
0,101953;2,50619;2,49554;2,4969;
0,101963;2,50619;2,49554;2,49691;
0,101973;2,50619;2,49554;2,49691;
0,101983;2,50619;2,49554;2,49691;
0,101993;2,50619;2,49554;2,49691;
0,102003;2,50619;2,49554;2,49691;
0,102013;2,50619;2,49554;2,49691;
0,102023;2,50619;2,49554;2,49691;
0,102033;2,50619;2,49554;2,49691;
0,102043;2,50619;2,49554;2,49691;
0,102053;2,50619;2,49554;2,49691;
0,102063;2,50619;2,49554;2,49691;
0,102073;2,50619;2,49554;2,49691;
0,102083;2,50619;2,49554;2,49691;
0,102093;2,50619;2,49554;2,49691;
0,102103;2,50619;2,49554;2,49691;
0,102113;2,50619;2,49554;2,49691;
0,102123;2,50619;2,49554;2,49691;
0,102133;2,50619;2,49554;2,49691;
0,102143;2,50619;2,49554;2,49691;
0,102153;2,50619;2,49554;2,49691;
0,102163;2,50619;2,49554;2,49691;
0,102173;2,50619;2,49554;2,49691;
0,102183;2,50619;2,49554;2,49691;
0,102193;2,50619;2,49554;2,49691;
0,102203;2,50619;2,49554;2,49691;
0,102213;2,50619;2,49554;2,49691;
0,102223;2,50619;2,49554;2,49691;
0,102233;2,50619;2,49554;2,49691;
0,102243;2,50619;2,49554;2,49692;
0,102253;2,50619;2,49554;2,49692;
0,102263;2,50619;2,49554;2,49692;
0,102273;2,50619;2,49554;2,49692;
0,102283;2,50619;2,49554;2,49692;
0,102293;2,50619;2,49554;2,49692;
0,102303;2,50619;2,49553;2,49692;
0,102313;2,50619;2,49553;2,49692;
0,102323;2,50619;2,49553;2,49692;
0,102333;2,50619;2,49553;2,49692;
0,102343;2,50619;2,49553;2,49692;
0,102353;2,50619;2,49553;2,49692;
0,102363;2,50619;2,49553;2,49692;
0,102373;2,50619;2,49553;2,49692;
0,102383;2,50619;2,49553;2,49692;
0,102393;2,50619;2,49553;2,49692;
0,102403;2,50619;2,49553;2,49692;
0,102413;2,50619;2,49553;2,49692;
0,102423;2,50619;2,49553;2,49692;
0,102433;2,50619;2,49553;2,49692;
0,102443;2,50619;2,49553;2,49692;
0,102453;2,50619;2,49553;2,49692;
0,102463;2,50619;2,49553;2,49692;
0,102473;2,50619;2,49553;2,49692;
0,102483;2,50619;2,49553;2,49692;
0,102493;2,50619;2,49553;2,49692;
0,102503;2,50619;2,49553;2,49692;
0,102513;2,50619;2,49553;2,49692;
0,102523;2,50619;2,49553;2,49692;
0,102533;2,50619;2,49553;2,49692;
0,102543;2,50619;2,49553;2,49692;
0,102553;2,50619;2,49553;2,49692;
0,102563;2,50619;2,49553;2,49692;
0,102573;2,50619;2,49553;2,49692;
0,102583;2,50619;2,49553;2,49692;
0,102593;2,50619;2,49553;2,49692;
0,102603;2,50619;2,49553;2,49692;
0,102613;2,50619;2,49553;2,49692;
0,102623;2,50619;2,49553;2,49692;
0,102633;2,50619;2,49553;2,49692;
0,102643;2,50619;2,49553;2,49693;
0,102653;2,50619;2,49553;2,49693;
0,102663;2,50619;2,49553;2,49693;
0,102673;2,50619;2,49553;2,49693;
0,102683;2,50619;2,49553;2,49693;
0,102693;2,50619;2,49553;2,49693;
0,102703;2,50619;2,49553;2,49693;
0,102713;2,50619;2,49553;2,49693;
0,102723;2,50619;2,49553;2,49693;
0,102733;2,50619;2,49553;2,49693;
0,102743;2,50619;2,49553;2,49693;
0,102753;2,50619;2,49553;2,49693;
0,102763;2,50619;2,49553;2,49693;
0,102773;2,50619;2,49553;2,49693;
0,102783;2,50619;2,49553;2,49693;
0,102793;2,50619;2,49553;2,49693;
0,102803;2,50619;2,49553;2,49693;
0,102813;2,50619;2,49553;2,49693;
0,102823;2,50619;2,49553;2,49693;
0,102833;2,50619;2,49553;2,49693;
0,102843;2,50619;2,49553;2,49693;
0,102853;2,50619;2,49553;2,49693;
0,102863;2,50619;2,49553;2,49693;
0,102873;2,50619;2,49553;2,49693;
0,102883;2,50619;2,49553;2,49693;
0,102893;2,50619;2,49553;2,49693;
0,102903;2,50619;2,49553;2,49693;
0,102913;2,50619;2,49553;2,49693;
0,102923;2,50619;2,49553;2,49693;
0,102933;2,50619;2,49553;2,49693;
0,102943;2,50619;2,49553;2,49693;
0,102953;2,50619;2,49553;2,49693;
0,102963;2,50619;2,49553;2,49693;
0,102973;2,50619;2,49553;2,49693;
0,102983;2,50619;2,49553;2,49693;
0,102993;2,50619;2,49553;2,49693;
0,103003;2,50619;2,49553;2,49693;
0,103013;2,50619;2,49553;2,49693;
0,103023;2,50619;2,49553;2,49693;
0,103033;2,50619;2,49553;2,49693;
0,103043;2,50619;2,49553;2,49693;
0,103053;2,50619;2,49553;2,49693;
0,103063;2,50619;2,49553;2,49693;
0,103073;2,50619;2,49553;2,49693;
0,103083;2,50619;2,49553;2,49693;
0,103093;2,50619;2,49553;2,49693;
0,103103;2,50619;2,49553;2,49693;
0,103113;2,50619;2,49553;2,49693;
0,103123;2,50619;2,49553;2,49693;
0,103133;2,50619;2,49553;2,49693;
0,103143;2,50619;2,49553;2,49693;
0,103153;2,50619;2,49553;2,49693;
0,103163;2,50619;2,49553;2,49693;
0,103173;2,50619;2,49553;2,49693;
0,103183;2,50619;2,49553;2,49693;
0,103193;2,50619;2,49553;2,49693;
0,103203;2,50619;2,49553;2,49693;
0,103213;2,50619;2,49553;2,49693;
0,103223;2,50619;2,49553;2,49693;
0,103233;2,50619;2,49553;2,49693;
0,103243;2,50619;2,49553;2,49693;
0,103253;2,50619;2,49553;2,49693;
0,103263;2,50619;2,49553;2,49693;
0,103273;2,50619;2,49553;2,49693;
0,103283;2,50619;2,49553;2,49693;
0,103293;2,50619;2,49553;2,49693;
0,103303;2,50619;2,49553;2,49693;
0,103313;2,50619;2,49553;2,49693;
0,103323;2,50619;2,49553;2,49693;
0,103333;2,50619;2,49553;2,49693;
0,103343;2,50619;2,49553;2,49693;
0,103353;2,50619;2,49553;2,49693;
0,103363;2,50619;2,49553;2,49693;
0,103373;2,50619;2,49553;2,49693;
0,103383;2,50619;2,49553;2,49693;
0,103393;2,50619;2,49553;2,49693;
0,103403;2,50619;2,49553;2,49693;
0,103413;2,50619;2,49553;2,49693;
0,103423;2,50619;2,49553;2,49693;
0,103433;2,50619;2,49553;2,49693;
0,103443;2,50619;2,49553;2,49693;
0,103453;2,50619;2,49553;2,49693;
0,103463;2,50619;2,49553;2,49693;
0,103473;2,50619;2,49553;2,49693;
0,103483;2,50619;2,49553;2,49693;
0,103493;2,50619;2,49553;2,49693;
0,103503;2,50619;2,49553;2,49693;
0,103513;2,50619;2,49553;2,49693;
0,103523;2,50619;2,49553;2,49693;
0,103533;2,50619;2,49553;2,49693;
0,103543;2,50619;2,49553;2,49693;
0,103553;2,50619;2,49553;2,49693;
0,103563;2,50619;2,49553;2,49693;
0,103573;2,50619;2,49553;2,49693;
0,103583;2,50619;2,49553;2,49693;
0,103593;2,50619;2,49553;2,49693;
0,103603;2,50619;2,49553;2,49693;
0,103613;2,50619;2,49553;2,49693;
0,103623;2,50619;2,49553;2,49693;
0,103633;2,50619;2,49553;2,49693;
0,103643;2,50619;2,49553;2,49693;
0,103653;2,50619;2,49553;2,49693;
0,103663;2,50619;2,49553;2,49693;
0,103673;2,50619;2,49553;2,49693;
0,103683;2,50619;2,49553;2,49693;
0,103693;2,50619;2,49553;2,49693;
0,103703;2,50619;2,49553;2,49693;
0,103713;2,50619;2,49553;2,49693;
0,103723;2,50619;2,49553;2,49692;
0,103733;2,50619;2,49553;2,49692;
0,103743;2,50619;2,49553;2,49692;
0,103753;2,50619;2,49553;2,49692;
0,103763;2,50619;2,49553;2,49692;
0,103773;2,50619;2,49553;2,49692;
0,103783;2,50619;2,49553;2,49692;
0,103793;2,50619;2,49553;2,49692;
0,103803;2,50619;2,49553;2,49692;
0,103813;2,50619;2,49553;2,49692;
0,103823;2,50619;2,49553;2,49692;
0,103833;2,50619;2,49553;2,49692;
0,103843;2,50619;2,49553;2,49692;
0,103853;2,50619;2,49553;2,49692;
0,103863;2,50619;2,49553;2,49692;
0,103873;2,50619;2,49553;2,49692;
0,103883;2,50619;2,49553;2,49692;
0,103893;2,50619;2,49553;2,49692;
0,103903;2,50619;2,49553;2,49692;
0,103913;2,50619;2,49553;2,49692;
0,103923;2,50619;2,49553;2,49692;
0,103933;2,50619;2,49553;2,49692;
0,103943;2,50619;2,49553;2,49692;
0,103953;2,50619;2,49553;2,49692;
0,103963;2,50619;2,49553;2,49692;
0,103973;2,50619;2,49553;2,49692;
0,103983;2,50619;2,49553;2,49692;
0,103993;2,50619;2,49553;2,49692;
0,104003;2,50619;2,49553;2,49692;
0,104013;2,50619;2,49553;2,49692;
0,104023;2,50619;2,49553;2,49692;
0,104033;2,50619;2,49553;2,49692;
0,104043;2,50619;2,49553;2,49692;
0,104053;2,50619;2,49553;2,49692;
0,104063;2,50619;2,49553;2,49692;
0,104073;2,50619;2,49554;2,49692;
0,104083;2,50619;2,49554;2,49692;
0,104093;2,50619;2,49554;2,49692;
0,104103;2,50619;2,49554;2,49692;
0,104113;2,50619;2,49554;2,49692;
0,104123;2,50619;2,49554;2,49691;
0,104133;2,50619;2,49554;2,49691;
0,104143;2,50619;2,49554;2,49691;
0,104153;2,50619;2,49554;2,49691;
0,104163;2,50619;2,49554;2,49691;
0,104173;2,50619;2,49554;2,49691;
0,104183;2,50619;2,49554;2,49691;
0,104193;2,50619;2,49554;2,49691;
0,104203;2,50619;2,49554;2,49691;
0,104213;2,50619;2,49554;2,49691;
0,104223;2,50619;2,49554;2,49691;
0,104233;2,50619;2,49554;2,49691;
0,104243;2,50619;2,49554;2,49691;
0,104253;2,50619;2,49554;2,49691;
0,104263;2,50619;2,49554;2,49691;
0,104273;2,50619;2,49554;2,49691;
0,104283;2,50619;2,49554;2,49691;
0,104293;2,50619;2,49554;2,49691;
0,104303;2,50619;2,49554;2,49691;
0,104313;2,50619;2,49554;2,49691;
0,104323;2,50619;2,49554;2,49691;
0,104333;2,50619;2,49554;2,49691;
0,104343;2,50619;2,49554;2,49691;
0,104353;2,50619;2,49554;2,49691;
0,104363;2,50619;2,49554;2,49691;
0,104373;2,50619;2,49554;2,49691;
0,104383;2,50619;2,49554;2,49691;
0,104393;2,50619;2,49554;2,49691;
0,104403;2,50619;2,49554;2,4969;
0,104413;2,50619;2,49554;2,4969;
0,104423;2,50619;2,49554;2,4969;
0,104433;2,50619;2,49554;2,4969;
0,104443;2,50619;2,49554;2,4969;
0,104453;2,50619;2,49554;2,4969;
0,104463;2,50619;2,49554;2,4969;
0,104473;2,50619;2,49554;2,4969;
0,104483;2,50619;2,49554;2,4969;
0,104493;2,50619;2,49554;2,4969;
0,104503;2,50619;2,49555;2,4969;
0,104513;2,50619;2,49555;2,4969;
0,104523;2,50619;2,49555;2,4969;
0,104533;2,50619;2,49555;2,4969;
0,104543;2,50619;2,49555;2,4969;
0,104553;2,50619;2,49555;2,4969;
0,104563;2,50619;2,49555;2,4969;
0,104573;2,50619;2,49555;2,4969;
0,104583;2,50619;2,49555;2,4969;
0,104593;2,50619;2,49555;2,4969;
0,104603;2,50619;2,49555;2,4969;
0,104613;2,50619;2,49555;2,4969;
0,104623;2,50619;2,49555;2,49689;
0,104633;2,50619;2,49555;2,49689;
0,104643;2,50619;2,49555;2,49689;
0,104653;2,50619;2,49555;2,49689;
0,104663;2,50619;2,49555;2,49689;
0,104673;2,50619;2,49555;2,49689;
0,104683;2,50619;2,49555;2,49689;
0,104693;2,50619;2,49555;2,49689;
0,104703;2,50619;2,49555;2,49689;
0,104713;2,50619;2,49555;2,49689;
0,104723;2,50619;2,49555;2,49689;
0,104733;2,50619;2,49555;2,49689;
0,104743;2,50619;2,49555;2,49689;
0,104753;2,50619;2,49555;2,49689;
0,104763;2,50619;2,49555;2,49689;
0,104773;2,50619;2,49555;2,49689;
0,104783;2,50619;2,49555;2,49689;
0,104793;2,50619;2,49555;2,49689;
0,104803;2,50619;2,49555;2,49689;
0,104813;2,50619;2,49555;2,49689;
0,104823;2,50619;2,49556;2,49688;
0,104833;2,50619;2,49556;2,49688;
0,104843;2,50619;2,49556;2,49688;
0,104853;2,50619;2,49556;2,49688;
0,104863;2,50619;2,49556;2,49688;
0,104873;2,50619;2,49556;2,49688;
0,104883;2,50619;2,49556;2,49688;
0,104893;2,50619;2,49556;2,49688;
0,104903;2,50619;2,49556;2,49688;
0,104913;2,50619;2,49556;2,49688;
0,104923;2,50619;2,49556;2,49688;
0,104933;2,50619;2,49556;2,49688;
0,104943;2,50619;2,49556;2,49688;
0,104953;2,50619;2,49556;2,49688;
0,104963;2,50619;2,49556;2,49688;
0,104973;2,50619;2,49556;2,49688;
0,104983;2,50619;2,49556;2,49688;
0,104993;2,50619;2,49556;2,49687;
0,105003;2,50619;2,49556;2,49687;
0,105013;2,50619;2,49556;2,49687;
0,105023;2,50619;2,49556;2,49687;
0,105033;2,50619;2,49556;2,49687;
0,105043;2,50619;2,49556;2,49687;
0,105053;2,50619;2,49556;2,49687;
0,105063;2,50619;2,49556;2,49687;
0,105073;2,50619;2,49556;2,49687;
0,105083;2,50619;2,49556;2,49687;
0,105093;2,50619;2,49556;2,49687;
0,105103;2,50619;2,49557;2,49687;
0,105113;2,50619;2,49557;2,49687;
0,105123;2,50619;2,49557;2,49687;
0,105133;2,50619;2,49557;2,49687;
0,105143;2,50619;2,49557;2,49687;
0,105153;2,50619;2,49557;2,49686;
0,105163;2,50619;2,49557;2,49686;
0,105173;2,50619;2,49557;2,49686;
0,105183;2,50619;2,49557;2,49686;
0,105193;2,50619;2,49557;2,49686;
0,105203;2,50619;2,49557;2,49686;
0,105213;2,50619;2,49557;2,49686;
0,105223;2,50619;2,49557;2,49686;
0,105233;2,50619;2,49557;2,49686;
0,105243;2,50619;2,49557;2,49686;
0,105253;2,50619;2,49557;2,49686;
0,105263;2,50619;2,49557;2,49686;
0,105273;2,50619;2,49557;2,49686;
0,105283;2,50619;2,49557;2,49686;
0,105293;2,50619;2,49557;2,49686;
0,105303;2,50619;2,49557;2,49685;
0,105313;2,50619;2,49557;2,49685;
0,105323;2,50619;2,49557;2,49685;
0,105333;2,50619;2,49557;2,49685;
0,105343;2,50619;2,49558;2,49685;
0,105353;2,50619;2,49558;2,49685;
0,105363;2,50619;2,49558;2,49685;
0,105373;2,50619;2,49558;2,49685;
0,105383;2,50619;2,49558;2,49685;
0,105393;2,50619;2,49558;2,49685;
0,105403;2,50619;2,49558;2,49685;
0,105413;2,50619;2,49558;2,49685;
0,105423;2,50619;2,49558;2,49685;
0,105433;2,50619;2,49558;2,49685;
0,105443;2,50619;2,49558;2,49684;
0,105453;2,50619;2,49558;2,49684;
0,105463;2,50619;2,49558;2,49684;
0,105473;2,50619;2,49558;2,49684;
0,105483;2,50619;2,49558;2,49684;
0,105493;2,50619;2,49558;2,49684;
0,105503;2,50619;2,49558;2,49684;
0,105513;2,50619;2,49558;2,49684;
0,105523;2,50619;2,49558;2,49684;
0,105533;2,50619;2,49558;2,49684;
0,105543;2,50619;2,49558;2,49684;
0,105553;2,50619;2,49559;2,49684;
0,105563;2,50619;2,49559;2,49684;
0,105573;2,50619;2,49559;2,49683;
0,105583;2,50619;2,49559;2,49683;
0,105593;2,50619;2,49559;2,49683;
0,105603;2,50619;2,49559;2,49683;
0,105613;2,50619;2,49559;2,49683;
0,105623;2,50619;2,49559;2,49683;
0,105633;2,50619;2,49559;2,49683;
0,105643;2,50619;2,49559;2,49683;
0,105653;2,50619;2,49559;2,49683;
0,105663;2,50619;2,49559;2,49683;
0,105673;2,50619;2,49559;2,49683;
0,105683;2,50619;2,49559;2,49683;
0,105693;2,50619;2,49559;2,49683;
0,105703;2,50619;2,49559;2,49682;
0,105713;2,50619;2,49559;2,49682;
0,105723;2,50619;2,49559;2,49682;
0,105733;2,50619;2,49559;2,49682;
0,105743;2,50619;2,49559;2,49682;
0,105753;2,50619;2,4956;2,49682;
0,105763;2,50619;2,4956;2,49682;
0,105773;2,50619;2,4956;2,49682;
0,105783;2,50619;2,4956;2,49682;
0,105793;2,50619;2,4956;2,49682;
0,105803;2,50619;2,4956;2,49682;
0,105813;2,50619;2,4956;2,49682;
0,105823;2,50619;2,4956;2,49681;
0,105833;2,50619;2,4956;2,49681;
0,105843;2,50619;2,4956;2,49681;
0,105853;2,50619;2,4956;2,49681;
0,105863;2,50619;2,4956;2,49681;
0,105873;2,50619;2,4956;2,49681;
0,105883;2,50619;2,4956;2,49681;
