time;V(/BiasOut)1;V(/VoutN)1;V(/VoutP)1
0;-0,00900005;-0,00999955;-0,00999955
1,00E-06;-0,00897797;-0,010081;-0,00993563
2,00E-06;-0,00894587;-0,0102187;-0,00980598
4,00E-06;-0,00887715;-0,0105899;-0,00943836
8,00E-06;-0,00874187;-0,0117685;-0,00825535
1,60E-05;-0,00847929;-0,0149359;-0,00509084
2,68E-05;-0,00812936;-0,0197319;-0,00029118
3,94E-05;-0,0077337;-0,0253592;0,00533354
6,27E-05;-0,00700052;-0,0358474;0,0158246
0,000109492;-0,00554858;-0,0568053;0,0367799
0,000203001;-0,00265765;-0,0985483;0,0785252
0,000303001;0,000400325;-0,14278;0,122754
0,000403001;0,0034126;-0,186373;0,16635
0,000503001;0,00635917;-0,229128;0,209103
0,000603001;0,00922959;-0,270834;0,250811
0,000703001;0,0120044;-0,311297;0,291273
0,000803001;0,014674;-0,350318;0,330297
0,000903001;0,0172198;-0,387717;0,367694
0,001003;0,0196335;-0,42331;0,40329
0,001103;0,0218977;-0,456932;0,436911
0,001203;0,0240053;-0,488417;0,4684
0,001303;0,0259406;-0,51762;0,497602
0,001403;0,027698;-0,544397;0,524382
0,001503;0,0292634;-0,568625;0,548609
0,001603;0,0306332;-0,590183;0,570171
0,001703;0,0317951;-0,608972;0,58896
0,001803;0,0327473;-0,6249;0,604891
0,001903;0,0334797;-0,637893;0,617884
0,002003;0,0339926;-0,647887;0,627881
0,002103;0,034278;-0,654836;0,63483
0,002203;0,0343382;-0,658704;0,638702
0,002303;0,0341677;-0,659476;0,639475
0,002403;0,0337708;-0,657146;0,637148
0,002503;0,0331443;-0,651727;0,631729
0,002603;0,0322947;-0,643242;0,623248
0,002703;0,031221;-0,631735;0,611741
0,002803;0,0299321;-0,617258;0,597267
0,002903;0,0284288;-0,599883;0,579892
0,003003;0,0267222;-0,579689;0,559702
0,003103;0,0248153;-0,556777;0,53679
0,003203;0,0227211;-0,531252;0,511268
0,003303;0,0204445;-0,50324;0,483256
0,003403;0,0180002;-0,472871;0,45289
0,003503;0,0153951;-0,440293;0,420312
0,003603;0,0126453;-0,40566;0,385681
0,003703;0,00975925;-0,369138;0,34916
0,003803;0,0067545;-0,3309;0,310924
0,003903;0,00364081;-0,291131;0,271156
0,004003;0,000436803;-0,250019;0,230045
0,004103;-0,00284668;-0,207761;0,187788
0,004203;-0,00619021;-0,164559;0,144586
0,004303;-0,00958214;-0,120619;0,100646
0,004403;-0,0130025;-0,0761497;0,0561788
0,004503;-0,0164392;-0,0313658;0,0113944
0,004603;-0,0198721;0,013521;-0,0334913
0,004703;-0,0232888;0,0582947;-0,0782657
0,004803;-0,0266693;0,102743;-0,122713
0,004903;-0,0300013;0,146652;-0,166624
0,005003;-0,0332653;0,189814;-0,209785
0,005103;-0,0364493;0,232022;-0,251993
0,005203;-0,0395344;0,273074;-0,293045
0,005303;-0,0425097;0,312774;-0,332747
0,005403;-0,0453571;0,350933;-0,370906
0,005503;-0,0480665;0,387368;-0,407343
0,005603;-0,0506213;0,421907;-0,441882
0,005703;-0,0530126;0,454382;-0,474359
0,005803;-0,0552253;0,484641;-0,504618
0,005903;-0,0572521;0,512537;-0,532516
0,006003;-0,0590795;0,537939;-0,557919
0,006103;-0,060702;0,560723;-0,580705
0,006203;-0,0621081;0,580783;-0,600767
0,006303;-0,063294;0,598022;-0,618007
0,006403;-0,0642504;0,612358;-0,632344
0,006503;-0,0649754;0,623721;-0,64371
0,006603;-0,0654621;0,632059;-0,652049
0,006703;-0,0657106;0,637331;-0,657323
0,006803;-0,0657163;0,639512;-0,659506
0,006903;-0,0654815;0,638591;-0,658588
0,007003;-0,0650038;0,634574;-0,654572
0,007103;-0,0642879;0,627478;-0,647479
0,007203;-0,0633335;0,617339;-0,637341
0,007303;-0,0621475;0,604204;-0,624208
0,007403;-0,060732;0,588137;-0,608143
0,007503;-0,0590958;0,569213;-0,589221
0,007603;-0,0572433;0,547523;-0,567533
0,007703;-0,0551852;0,523172;-0,543183
0,007803;-0,0529279;0,496274;-0,516288
0,007903;-0,0504841;0,466959;-0,486974
0,008003;-0,0478618;0,435367;-0,455384
0,008103;-0,0450755;0,401648;-0,421666
0,008203;-0,042135;0,365963;-0,385983
0,008303;-0,0390558;0,328483;-0,348504
0,008403;-0,0358495;0,289387;-0,309409
0,008503;-0,0325326;0,248861;-0,268885
0,008603;-0,0291179;0,207099;-0,227124
0,008703;-0,0256229;0,164301;-0,184326
0,008803;-0,0220611;0,12067;-0,140697
0,008903;-0,0184508;0,0764156;-0,0964426
0,009003;-0,0148059;0,0317482;-0,0517759
0,009103;-0,0111451;-0,0131183;-0,0069096
0,009203;-0,00748268;-0,0579702;0,0379417
0,009303;-0,00383714;-0,102593;0,0825644
0,009403;-0,000222861;-0,146774;0,126745
0,009503;0,00334199;-0,190301;0,170273
0,009603;0,00684336;-0,232968;0,212939
0,009703;0,0102637;-0,274569;0,254542
0,009803;0,0135896;-0,314908;0,294881
0,009903;0,0168045;-0,353791;0,333764
0,010003;0,0198957;-0,391032;0,371006
0,010103;0,022848;-0,426453;0,406428
0,010203;0,0256499;-0,459887;0,439862
0,010303;0,0282876;-0,491171;0,471148
0,010403;0,030751;-0,520159;0,500137
0,010503;0,033028;-0,54671;0,526689
0,010603;0,0351102;-0,570699;0,550679
0,010703;0,0369872;-0,59201;0,571992
0,010803;0,0386527;-0,610542;0,590525
0,010903;0,0400982;-0,626206;0,606192
0,011003;0,0413194;-0,638929;0,618915
0,011103;0,0423099;-0,648647;0,628636
0,011203;0,0430675;-0,655317;0,635307
0,011303;0,0435883;-0,658905;0,638898
0,011403;0,0438719;-0,659395;0,639389
0,011503;0,0439169;-0,656783;0,63678
0,011603;0,0437251;-0,651084;0,631082
0,011703;0,0432972;-0,642323;0,622323
0,011803;0,0426374;-0,630543;0,610545
0,011903;0,0417486;-0,6158;0,595804
0,012003;0,040637;-0,598164;0,578169
0,012103;0,0393078;-0,577719;0,557727
0,012203;0,0377692;-0,554565;0,534573
0,012303;0,0360284;-0,528809;0,50882
0,012403;0,0340955;-0,500576;0,480589
0,012503;0,0319795;-0,470001;0,450015
0,012603;0,0296923;-0,437229;0,417245
0,012703;0,0272447;-0,402417;0,382435
0,012803;0,0246498;-0,365732;0,34575
0,012903;0,0219201;-0,327347;0,307368
0,013003;0,0190699;-0,287448;0,267469
0,013103;0,0161128;-0,246223;0,226246
0,013203;0,0130643;-0,203871;0,183894
0,013303;0,00993874;-0,160593;0,140618
0,013403;0,00675231;-0,116596;0,0966209
0,013503;0,00352021;-0,0720899;0,0521158
0,013603;0,000258859;-0,0272877;0,00731336
0,013703;-0,00301615;0,0175978;-0,037571
0,013803;-0,0062883;0,0623508;-0,0823245
0,013903;-0,00954196;0,106759;-0,126732
0,014003;-0,0127608;0,150609;-0,170583
0,014103;-0,0159295;0,193693;-0,213666
0,014203;-0,0190323;0,235803;-0,255777
0,014303;-0,0220544;0,276741;-0,296714
0,014403;-0,0249807;0,316308;-0,336283
0,014503;-0,0277974;0,354318;-0,374293
0,014603;-0,0304906;0,390588;-0,410565
0,014703;-0,0330475;0,424946;-0,444922
0,014803;-0,0354555;0,457226;-0,477204
0,014903;-0,0377033;0,487276;-0,507255
0,015003;-0,0397798;0,514951;-0,534931
0,015103;-0,0416754;0,540119;-0,560101
0,015203;-0,0433808;0,562661;-0,582644
0,015303;-0,0448881;0,582468;-0,602452
0,015403;-0,04619;0,599446;-0,619432
0,015503;-0,0472805;0,613514;-0,633501
0,015603;-0,0481545;0,624605;-0,644594
0,015703;-0,048808;0,632665;-0,652656
0,015803;-0,0492382;0,637657;-0,65765
0,015903;-0,0494431;0,639557;-0,65955
0,016003;-0,0494222;0,638354;-0,65835
0,016103;-0,0491757;0,634056;-0,654053
0,016203;-0,0487054;0,626682;-0,646682
0,016303;-0,0480136;0,616269;-0,63627
0,016403;-0,0471042;0,602864;-0,622868
0,016503;-0,0459819;0,586534;-0,606539
0,016603;-0,0446527;0,567354;-0,587362
0,016703;-0,0431231;0,545419;-0,565427
0,016803;-0,0414013;0,52083;-0,540841
0,016903;-0,0394958;0,493708;-0,51372
0,017003;-0,0374165;0,46418;-0,484194
0,017103;-0,0351737;0,432388;-0,452403
0,017203;-0,0327791;0,398483;-0,4185
0,017303;-0,0302443;0,362629;-0,382646
0,017403;-0,0275827;0,324994;-0,345013
0,017503;-0,0248071;0,28576;-0,30578
0,017603;-0,0219321;0,245114;-0,265135
0,017703;-0,0189716;0,20325;-0,223272
0,017803;-0,015941;0,160367;-0,18039
0,017903;-0,0128553;0,116671;-0,136695
0,018003;-0,0097303;0,0723701;-0,0923945
0,018103;-0,00658143;0,0276763;-0,0477004
0,018203;-0,00342506;-0,0171982;-0,00282693
0,018303;-0,000276654;-0,0620376;0,0420129
0,018403;0,00284734;-0,106629;0,0866038
0,018503;0,00593159;-0,150759;0,130734
0,018603;0,00895989;-0,194217;0,174192
0,018703;0,0119174;-0,236794;0,21677
0,018803;0,0147884;-0,27829;0,258266
0,018903;0,0175588;-0,318504;0,298481
0,019003;0,0202138;-0,357245;0,337222
0,019103;0,0227403;-0,394327;0,374306
0,019203;0,0251246;-0,429575;0,409554
0,019303;0,0273549;-0,462819;0,4428
0,019403;0,0294189;-0,493902;0,473883
0,019503;0,0313064;-0,522673;0,502656
0,019603;0,0330065;-0,548996;0,52898
0,019703;0,0345108;-0,572746;0,552731
0,019803;0,0358104;-0,593809;0,573795
0,019903;0,0368986;-0,612083;0,592072
0,020003;0,0377686;-0,627483;0,607473
0,020103;0,0384158;-0,639934;0,619927
0,020203;0,0388353;-0,649378;0,629372
0,020303;0,0390248;-0,655768;0,635764
0,020403;0,0389816;-0,659076;0,639073
0,020503;0,0387055;-0,659283;0,639282
0,020603;0,038196;-0,65639;0,636391
0,020703;0,0374554;-0,650411;0,630414
0,020803;0,0364853;-0,641374;0,621379
0,020903;0,03529;-0,629322;0,609329
0,021003;0,0338735;-0,614313;0,594321
0,021103;0,0322424;-0,596417;0,576428
0,021203;0,0304025;-0,575723;0,555735
0,021303;0,0283624;-0,552326;0,532341
0,021403;0,0261302;-0,52634;0,506356
0,021503;0,0237162;-0,497889;0,477907
0,021603;0,0211303;-0,467108;0,447127
0,021703;0,0183847;-0,434144;0,414165
0,021803;0,0154907;-0,399155;0,379177
0,021903;0,012462;-0,362307;0,342331
0,022003;0,00931138;-0,323778;0,303802
0,022103;0,00605383;-0,28375;0,263776
0,022203;0,00270325;-0,242415;0,222441
0,022303;-0,000724424;-0,19997;0,179998
0,022403;-0,00421443;-0,156618;0,136646
0,022503;-0,00775011;-0,112566;0,0925951
0,022603;-0,0113161;-0,0680242;0,0480536
0,022703;-0,0148954;-0,0232052;0,00323537
0,022803;-0,0184725;0,0216766;-0,0416465
0,022903;-0,02203;0,0664075;-0,0863769
0,023003;-0,0255526;0,110773;-0,130743
0,023103;-0,0290232;0,154563;-0,174532
0,023203;-0,0324267;0,197566;-0,217536
0,023303;-0,0357467;0,239578;-0,259548
0,023403;-0,0389685;0,280399;-0,30037
0,023503;-0,0420767;0,319833;-0,339804
0,023603;-0,0450577;0,357691;-0,377664
0,023703;-0,0478968;0,393795;-0,413768
0,023803;-0,0505818;0,42797;-0,447944
0,023903;-0,0530995;0,460054;-0,480029
0,024003;-0,0554391;0,489893;-0,50987
0,024103;-0,0575889;0,517346;-0,537323
0,024203;-0,0595397;0,54228;-0,562259
0,024303;-0,0612819;0,564577;-0,584558
0,024403;-0,062808;0,584131;-0,604113
0,024503;-0,0641102;0,600847;-0,620831
0,024603;-0,0651833;0,614647;-0,634633
0,024703;-0,0660216;0,625464;-0,645452
0,024803;-0,0666218;0,633247;-0,653237
0,024903;-0,0669806;0,637959;-0,65795
0,025003;-0,067097;0,639576;-0,659569
0,025103;-0,0669696;0,638092;-0,658087
0,025203;-0,0666;0,633512;-0,65351
0,025303;-0,0659889;0,625861;-0,64586
0,025403;-0,06514;0,615173;-0,635174
0,025503;-0,0640566;0,6015;-0,621503
0,025603;-0,0627443;0,584907;-0,604912
0,025703;-0,0612085;0,565473;-0,58548
0,025803;-0,0594571;0,543291;-0,5633
0,025903;-0,0574975;0,518468;-0,538478
0,026003;-0,0553395;0,491121;-0,511133
0,026103;-0,0529923;0,461381;-0,481395
0,026203;-0,0504675;0,42939;-0,449406
0,026303;-0,0477761;0,395302;-0,415319
0,026403;-0,0449312;0,359277;-0,379296
0,026503;-0,0419454;0,32149;-0,34151
0,026603;-0,038833;0,28212;-0,302141
0,026703;-0,0356078;0,241355;-0,261377
0,026803;-0,0322854;0,19939;-0,219413
0,026903;-0,0288802;0,156425;-0,176449
0,027003;-0,0254088;0,112665;-0,13269
0,027103;-0,0218863;0,0683193;-0,0883453
0,027203;-0,0183297;0,0235998;-0,0436264
0,027303;-0,0147546;-0,0212801;0,00125312
0,027403;-0,011178;-0,0661062;0,0460788
0,027503;-0,00761565;-0,110664;0,0906368
0,027603;-0,00408444;-0,154742;0,134714
0,027703;-0,000599862;-0,198128;0,178101
0,027803;0,00282164;-0,240616;0,220589
0,027903;0,00616513;-0,282003;0,261976
0,028003;0,00941489;-0,322091;0,302065
0,028103;0,0125568;-0,360689;0,340663
0,028203;0,0155763;-0,397612;0,377587
0,028303;0,0184602;-0,432684;0,41266
0,028403;0,0211953;-0,465739;0,445715
0,028503;0,0237699;-0,496616;0,476594
0,028603;0,0261721;-0,525171;0,50515
0,028703;0,0283919;-0,551265;0,531246
0,028803;0,0304193;-0,574775;0,554757
0,028903;0,032246;-0,595588;0,575571
0,029003;0,0338638;-0,613605;0,59359
0,029103;0,0352665;-0,62874;0,608726
0,029203;0,0364479;-0,64092;0,620908
0,029303;0,0374039;-0,650088;0,630077
0,029403;0,0381304;-0,656199;0,63619
0,029503;0,0386256;-0,659225;0,639218
0,029603;0,0388877;-0,65915;0,639145
0,029703;0,0389169;-0,655976;0,635973
0,029803;0,0387137;-0,649718;0,629716
0,029903;0,0382805;-0,640404;0,620405
0,030003;0,0376202;-0,628081;0,608083
0,030103;0,0367373;-0,612806;0,59281
0,030203;0,0356367;-0,594653;0,574659
0,030303;0,0343251;-0,573708;0,553716
0,030403;0,0328095;-0,550072;0,530081
0,030503;0,0310986;-0,523856;0,503867
0,030603;0,0292012;-0,495187;0,4752
0,030703;0,0271278;-0,464201;0,444216
0,030803;0,0248889;-0,431047;0,411063
0,030903;0,0224968;-0,395882;0,375899
0,031003;0,0199634;-0,358874;0,338893
0,031103;0,0173023;-0,3202;0,30022
0,031203;0,0145267;-0,280046;0,260067
0,031303;0,0116515;-0,238601;0,218624
0,031403;0,0086908;-0,196066;0,176089
0,031503;0,0056602;-0,152641;0,132665
0,031603;0,00257475;-0,108536;0,0885606
0,031703;-0,000549518;-0,0639602;0,0439853
0,031803;-0,0036971;-0,0191267;-0,000847764
0,031903;-0,0068517;0,0257503;-0,0457246
0,032003;-0,00999771;0,0704567;-0,0904307
0,032103;-0,0131189;0,114779;-0,134753
0,032203;-0,0161998;0,158505;-0,178479
0,032303;-0,0192246;0,201427;-0,221401
0,032403;-0,0221782;0,243339;-0,263314
0,032503;-0,0250456;0,284042;-0,304017
0,032603;-0,0278125;0,32334;-0,343316
0,032703;-0,0304647;0,361047;-0,381023
0,032803;-0,0329891;0,396982;-0,416959
0,032903;-0,0353727;0,430974;-0,450952
0,033003;-0,0376036;0,46286;-0,482839
0,033103;-0,0396703;0,492488;-0,512468
0,033203;-0,0415626;0,519716;-0,539698
0,033303;-0,0432706;0,544416;-0,564399
0,033403;-0,0447859;0,566468;-0,586452
0,033503;-0,0461003;0,585767;-0,605753
0,033603;-0,0472074;0,602222;-0,622209
0,033703;-0,0481011;0,615753;-0,635742
0,033803;-0,0487771;0,626296;-0,646287
0,033903;-0,0492313;0,633801;-0,653794
0,034003;-0,0494616;0,638232;-0,658226
0,034103;-0,0494662;0,639568;-0,659564
0,034203;-0,0492449;0,637802;-0,657799
0,034303;-0,0487984;0,632942;-0,652942
0,034403;-0,0481288;0,625013;-0,645014
0,034503;-0,0472387;0,614051;-0,634055
0,034603;-0,0461325;0,60011;-0,620115
0,034703;-0,0448151;0,583255;-0,603262
0,034803;-0,0432929;0,563568;-0,583576
0,034903;-0,0415728;0,541141;-0,561152
0,035003;-0,0396632;0,516083;-0,536095
0,035103;-0,037573;0,488513;-0,508527
0,035203;-0,0353123;0,458563;-0,478578
0,035303;-0,032892;0,426375;-0,446392
0,035403;-0,0303236;0,392104;-0,412122
0,035503;-0,0276195;0,355912;-0,375932
0,035603;-0,0247929;0,317974;-0,337994
0,035703;-0,0218573;0,278469;-0,29849
0,035803;-0,0188271;0,237587;-0,257609
0,035903;-0,0157168;0,195522;-0,215546
0,036003;-0,0125417;0,152476;-0,172501
0,036103;-0,00931716;0,108655;-0,12868
0,036203;-0,00605904;0,0642665;-0,0842919
0,036303;-0,00278316;0,0195236;-0,0395495
0,036403;0,000494344;-0,0253602;0,00533409
0,036503;0,00375747;-0,0701707;0,0501443
0,036603;0,00699009;-0,114694;0,0946675
0,036703;0,0101763;-0,158717;0,138691
0,036803;0,0133004;-0,20203;0,182004
0,036903;0,0163469;-0,244426;0,224401
0,037003;0,0193007;-0,285703;0,265678
0,037103;0,0221469;-0,325663;0,305639
0,037203;0,0248715;-0,364116;0,344093
0,037303;0,0274608;-0,400878;0,380856
0,037403;0,0299016;-0,435774;0,415752
0,037503;0,0321816;-0,468637;0,448616
0,037603;0,0342892;-0,499309;0,47929
0,037703;0,0362136;-0,527645;0,507627
0,037803;0,0379447;-0,55351;0,533493
0,037903;0,0394735;-0,576779;0,556764
0,038003;0,0407919;-0,597342;0,577328
0,038103;0,0418927;-0,6151;0,595088
0,038203;0,0427698;-0,629969;0,609958
0,038303;0,0434181;-0,641877;0,621869
0,038403;0,0438336;-0,650768;0,630762
0,038503;0,0440133;-0,6566;0,636595
0,038603;0,0439556;-0,659344;0,639341
0,038703;0,0436597;-0,658988;0,638987
0,038803;0,043126;-0,655532;0,635533
0,038903;0,0423561;-0,648995;0,628997
0,039003;0,0413527;-0,639406;0,61941
0,039103;0,0401195;-0,626811;0,606818
0,039203;0,0386615;-0,611271;0,59128
0,039303;0,0369845;-0,592861;0,572871
0,039403;0,0350956;-0,571667;0,551679
0,039503;0,0330026;-0,547791;0,527805
0,039603;0,0307146;-0,521347;0,501363
0,039703;0,0282413;-0,492462;0,472479
0,039803;0,0255937;-0,461272;0,441291
0,039903;0,0227831;-0,427928;0,407949
0,040003;0,019822;-0,392588;0,372611
0,040103;0,0167235;-0,355422;0,335445
0,040203;0,0135012;-0,316606;0,296631
0,040303;0,0101695;-0,276326;0,256352
0,040403;0,0067432;-0,234774;0,214801
0,040503;0,00323762;-0,192149;0,172177
0,040603;-0,000331532;-0,148654;0,128683
0,040703;-0,00394834;-0,104498;0,0845269
0,040803;-0,0075965;-0,0598895;0,0399194
0,040903;-0,0112597;-0,0150432;-0,00492652
0,041003;-0,0149215;0,0298272;-0,0497966
0,041103;-0,0185654;0,0745074;-0,0944767
0,041203;-0,0221749;0,118784;-0,138753
0,041303;-0,025734;0,162446;-0,182415
0,041403;-0,0292266;0,205284;-0,225254
0,041503;-0,0326369;0,247095;-0,267065
0,041603;-0,0359497;0,287678;-0,307648
0,041703;-0,0391501;0,326839;-0,34681
0,041803;-0,0422238;0,364392;-0,384364
0,041903;-0,0451569;0,400157;-0,42013
0,042003;-0,0479364;0,433964;-0,453938
0,042103;-0,0505499;0,465651;-0,485626
0,042203;-0,0529857;0,495066;-0,515042
0,042303;-0,0552332;0,52207;-0,542048
0,042403;-0,0572822;0,546534;-0,566512
0,042503;-0,059124;0,56834;-0,58832
0,042603;-0,0607504;0,587384;-0,607366
0,042703;-0,0621544;0,603576;-0,623559
0,042803;-0,0633301;0,616838;-0,636823
0,042903;-0,0642725;0,627107;-0,647094
0,043003;-0,0649778;0,634334;-0,654322
0,043103;-0,0654434;0,638484;-0,658474
0,043203;-0,0656675;0,639537;-0,65953
0,043303;-0,0656497;0,637489;-0,657484
0,043403;-0,0653906;0,63235;-0,652346
0,043503;-0,0648922;0,624143;-0,644141
0,043603;-0,0641571;0,612908;-0,632908
0,043703;-0,0631894;0,598698;-0,618701
0,043803;-0,0619942;0,581583;-0,601587
0,043903;-0,0605776;0,561642;-0,581648
0,044003;-0,0589466;0,538972;-0,55898
0,044103;-0,0571097;0,51368;-0,53369
0,044203;-0,0550756;0,485888;-0,5059
0,044303;-0,0528545;0,455728;-0,475741
0,044403;-0,0504573;0,423344;-0,443359
0,044503;-0,0478955;0,388891;-0,408908
0,044603;-0,0451817;0,352534;-0,372551
0,044703;-0,0423289;0,314445;-0,334464
0,044803;-0,0393509;0,274807;-0,294827
0,044903;-0,036262;0,233809;-0,25383
0,045003;-0,0330769;0,191647;-0,211669
0,045103;-0,029811;0,148522;-0,168545
0,045203;-0,0264798;0,10464;-0,124664
0,045303;-0,0230992;0,0602107;-0,0802355
0,045403;-0,0196851;0,0154462;-0,0354715
0,045503;-0,016254;-0,0294399;0,00941416
0,045603;-0,0128218;-0,0742331;0,0542071
0,045703;-0,00940499;-0,11872;0,0986935
0,045803;-0,00601947;-0,162687;0,142661
0,045903;-0,0026813;-0,205925;0,185899
0,046003;0,00059397;-0,248228;0,228202
0,046103;0,00379089;-0,289393;0,269368
0,046203;0,00689468;-0,329224;0,309199
0,046303;0,00989074;-0,367531;0,347507
0,046403;0,0127653;-0,404131;0,384107
0,046503;0,015505;-0,438849;0,418826
0,046603;0,0180972;-0,471518;0,451497
0,046703;0,0205301;-0,501985;0,481964
0,046803;0,0227926;-0,530101;0,510082
0,046903;0,0248743;-0,555735;0,535717
0,047003;0,0267661;-0,578762;0,558746
0,047103;0,0284594;-0,599074;0,579059
0,047203;0,0299468;-0,616573;0,596559
0,047303;0,0312218;-0,631176;0,611163
0,047403;0,0322791;-0,642812;0,622801
0,047503;0,0331143;-0,651427;0,631418
0,047603;0,0337242;-0,656979;0,636971
0,047703;0,0341066;-0,659441;0,639436
0,047803;0,0342606;-0,658803;0,638799
0,047903;0,0341861;-0,655067;0,635065
0,048003;0,0338844;-0,64825;0,62825
0,048103;0,0333577;-0,638386;0,618387
0,048203;0,0326095;-0,625521;0,605524
0,048303;0,0316441;-0,609717;0,589722
0,048403;0,0304673;-0,591049;0,571056
0,048503;0,0290853;-0,569607;0,549616
0,048603;0,027506;-0,545493;0,525504
0,048703;0,0257376;-0,518822;0,498834
0,048803;0,0237896;-0,489721;0,469735
0,048903;0,0216724;-0,45833;0,438345
0,049003;0,0193971;-0,424797;0,404814
0,049103;0,0169754;-0,389285;0,369303
0,049203;0,0144201;-0,351961;0,33198
0,049303;0,0117442;-0,313004;0,293024
0,049403;0,00896174;-0,2726;0,252622
0,049503;0,00608692;-0,230943;0,210965
0,049603;0,00313462;-0,18823;0,168254
0,049703;0,000119876;-0,144667;0,124691
0,049803;-0,00294173;-0,10046;0,0804849
0,049903;-0,00603462;-0,0558215;0,0358468
0,050003;-0,00914286;-0,0109642;-0,00901014
0,050103;-0,0122506;0,0338978;-0,0538719
0,050203;-0,0153419;0,0785501;-0,0985241
0,050303;-0,018401;0,12278;-0,142754
0,050403;-0,0214121;0,166375;-0,186349
0,050503;-0,0243599;0,209128;-0,229103
0,050603;-0,0272291;0,250835;-0,27081
