time;V(/VoutN)1;V(/VoutP)1;V(/BiasDrive)1;a
0;-0,01;-0,01;-5,18E-07;
1,00E-07;-0,0100014;-0,00999974;-3,67E-07;
2,00E-07;-0,0100042;-0,00999908;4,26E-08;
4,00E-07;-0,0100118;-0,00999666;1,52E-06;
8,00E-07;-0,0100372;-0,00998316;8,79E-06;
1,60E-06;-0,0101161;-0,00991521;3,49E-05;
3,20E-06;-0,0103743;-0,00965006;9,15E-05;
5,03E-06;-0,0108214;-0,00920227;0,000147774;
8,70E-06;-0,0120129;-0,00801371;0,00026688;
1,38E-05;-0,0140064;-0,00601598;0,000429753;
2,38E-05;-0,0183565;-0,00166854;0,000751663;
3,38E-05;-0,0228408;0,00282018;0,00107455;
4,38E-05;-0,0273301;0,00730734;0,00139599;
5,38E-05;-0,0318157;0,0117968;0,00171903;
6,38E-05;-0,0363029;0,0162824;0,00204012;
7,38E-05;-0,0407865;0,0207692;0,00236307;
8,38E-05;-0,0452707;0,0252524;0,00268388;
9,38E-05;-0,0497514;0,0297358;0,00300658;
0,000103755;-0,0542318;0,0342157;0,00332716;
0,000113755;-0,0587088;0,0386947;0,00364944;
0,000123755;-0,0631844;0,0431705;0,00396979;
0,000133755;-0,0676568;0,0476443;0,00429155;
0,000143755;-0,0721269;0,052115;0,00461164;
0,000153755;-0,0765939;0,056583;0,00493278;
0,000163755;-0,0810576;0,0610477;0,00525258;
0,000173755;-0,0855181;0,0655089;0,00557304;
0,000183755;-0,0899748;0,0699668;0,00589246;
0,000193755;-0,094428;0,0744204;0,00621218;
0,000203755;-0,0988767;0,0788705;0,00653117;
0,000213755;-0,103322;0,0833158;0,00685011;
0,000223755;-0,107762;0,0877572;0,00716855;
0,000233755;-0,112198;0,0921934;0,00748669;
0,000243755;-0,116628;0,0966252;0,00780451;
0,000253755;-0,121054;0,101051;0,00812181;
0,000263755;-0,125474;0,105473;0,0084389;
0,000273755;-0,129889;0,109888;0,00875533;
0,000283755;-0,134298;0,114298;0,0090716;
0,000293755;-0,138701;0,118702;0,00938712;
0,000303755;-0,143098;0,1231;0,0097025;
0,000313755;-0,147489;0,127491;0,0100171;
0,000323755;-0,151873;0,131876;0,0103315;
0,000333755;-0,15625;0,136254;0,010645;
0,000343755;-0,160621;0,140626;0,0109584;
0,000353755;-0,164984;0,144989;0,0112709;
0,000363755;-0,169339;0,149346;0,0115831;
0,000373755;-0,173688;0,153695;0,0118946;
0,000383755;-0,178028;0,158036;0,0122056;
0,000393755;-0,18236;0,162369;0,0125159;
0,000403755;-0,186684;0,166694;0,0128257;
0,000413755;-0,191;0,17101;0,0131347;
0,000423755;-0,195307;0,175318;0,0134432;
0,000433755;-0,199605;0,179617;0,013751;
0,000443755;-0,203894;0,183907;0,0140581;
0,000453755;-0,208174;0,188187;0,0143645;
0,000463755;-0,212444;0,192458;0,0146702;
0,000473755;-0,216705;0,19672;0,0149752;
0,000483755;-0,220956;0,200971;0,0152794;
0,000493755;-0,225196;0,205213;0,0155829;
0,000503755;-0,229427;0,209444;0,0158856;
0,000513755;-0,233647;0,213664;0,0161876;
0,000523755;-0,237856;0,217874;0,0164887;
0,000533755;-0,242055;0,222073;0,016789;
0,000543755;-0,246242;0,226261;0,0170885;
0,000553755;-0,250418;0,230438;0,0173872;
0,000563755;-0,254583;0,234603;0,017685;
0,000573755;-0,258735;0,238757;0,0179819;
0,000583755;-0,262877;0,242899;0,018278;
0,000593755;-0,267005;0,247028;0,0185731;
0,000603755;-0,271122;0,251145;0,0188673;
0,000613755;-0,275226;0,25525;0,0191606;
0,000623755;-0,279318;0,259342;0,019453;
0,000633755;-0,283396;0,263422;0,0197444;
0,000643755;-0,287462;0,267488;0,0200348;
0,000653755;-0,291514;0,271541;0,0203243;
0,000663755;-0,295553;0,27558;0,0206127;
0,000673755;-0,299579;0,279606;0,0209001;
0,000683755;-0,30359;0,283618;0,0211865;
0,000693755;-0,307587;0,287616;0,0214719;
0,000703755;-0,311571;0,2916;0,0217562;
0,000713755;-0,315539;0,295569;0,0220394;
0,000723755;-0,319494;0,299524;0,0223216;
0,000733755;-0,323433;0,303464;0,0226026;
0,000743755;-0,327357;0,307389;0,0228825;
0,000753755;-0,331267;0,311299;0,0231613;
0,000763755;-0,335161;0,315193;0,023439;
0,000773755;-0,339039;0,319072;0,0237155;
0,000783755;-0,342902;0,322936;0,0239908;
0,000793755;-0,346749;0,326783;0,024265;
0,000803755;-0,350579;0,330614;0,024538;
0,000813755;-0,354394;0,334429;0,0248097;
0,000823755;-0,358192;0,338228;0,0250803;
0,000833755;-0,361973;0,34201;0,0253496;
0,000843755;-0,365738;0,345775;0,0256176;
0,000853755;-0,369485;0,349523;0,0258844;
0,000863755;-0,373216;0,353254;0,0261499;
0,000873755;-0,376929;0,356967;0,0264142;
0,000883755;-0,380624;0,360663;0,0266771;
0,000893755;-0,384302;0,364342;0,0269387;
0,000903755;-0,387962;0,368002;0,027199;
0,000913755;-0,391604;0,371644;0,027458;
0,000923755;-0,395227;0,375268;0,0277156;
0,000933755;-0,398833;0,378874;0,0279718;
0,000943755;-0,402419;0,382461;0,0282267;
0,000953755;-0,405987;0,38603;0,0284802;
0,000963755;-0,409536;0,389579;0,0287322;
0,000973755;-0,413066;0,39311;0,0289829;
0,000983755;-0,416577;0,396621;0,0292321;
0,000993755;-0,420068;0,400112;0,0294799;
0,00100376;-0,42354;0,403585;0,0297263;
0,00101376;-0,426992;0,407037;0,0299711;
0,00102376;-0,430424;0,410469;0,0302145;
0,00103376;-0,433836;0,413882;0,0304564;
0,00104376;-0,437227;0,417274;0,0306969;
0,00105376;-0,440599;0,420646;0,0309358;
0,00106376;-0,443949;0,423997;0,0311731;
0,00107376;-0,447279;0,427327;0,031409;
0,00108376;-0,450588;0,430637;0,0316433;
0,00109376;-0,453876;0,433925;0,031876;
0,00110376;-0,457143;0,437192;0,0321072;
0,00111376;-0,460389;0,440438;0,0323368;
0,00112376;-0,463613;0,443662;0,0325648;
0,00113376;-0,466815;0,446865;0,0327912;
0,00114376;-0,469996;0,450046;0,033016;
0,00115376;-0,473154;0,453205;0,0332391;
0,00116376;-0,47629;0,456342;0,0334606;
0,00117376;-0,479404;0,459456;0,0336805;
0,00118376;-0,482496;0,462548;0,0338987;
0,00119376;-0,485565;0,465618;0,0341153;
0,00120376;-0,488612;0,468664;0,0343301;
0,00121376;-0,491635;0,471688;0,0345433;
0,00122376;-0,494636;0,474689;0,0347547;
0,00123376;-0,497613;0,477667;0,0349645;
0,00124376;-0,500567;0,480621;0,0351725;
0,00125376;-0,503498;0,483552;0,0353788;
0,00126376;-0,506405;0,48646;0,0355834;
0,00127376;-0,509288;0,489344;0,0357862;
0,00128376;-0,512148;0,492203;0,0359872;
0,00129376;-0,514983;0,495039;0,0361865;
0,00130376;-0,517795;0,497851;0,036384;
0,00131376;-0,520582;0,500638;0,0365797;
0,00132376;-0,523345;0,503402;0,0367736;
0,00133376;-0,526083;0,50614;0,0369656;
0,00134376;-0,528797;0,508854;0,0371559;
0,00135376;-0,531485;0,511543;0,0373443;
0,00136376;-0,534149;0,514207;0,0375309;
0,00137376;-0,536788;0,516846;0,0377156;
0,00138376;-0,539402;0,51946;0,0378985;
0,00139376;-0,54199;0,522049;0,0380795;
0,00140376;-0,544553;0,524612;0,0382586;
0,00141376;-0,547091;0,52715;0,0384359;
0,00142376;-0,549602;0,529662;0,0386112;
0,00143376;-0,552089;0,532149;0,0387847;
0,00144376;-0,554549;0,534609;0,0389562;
0,00145376;-0,556983;0,537043;0,0391258;
0,00146376;-0,559391;0,539452;0,0392935;
0,00147376;-0,561773;0,541834;0,0394592;
0,00148376;-0,564128;0,544189;0,039623;
0,00149376;-0,566457;0,546519;0,0397849;
0,00150376;-0,568759;0,548821;0,0399448;
0,00151376;-0,571035;0,551097;0,0401027;
0,00152376;-0,573284;0,553346;0,0402586;
0,00153376;-0,575506;0,555568;0,0404126;
0,00154376;-0,577701;0,557764;0,0405645;
0,00155376;-0,579868;0,559932;0,0407145;
0,00156376;-0,582009;0,562072;0,0408624;
0,00157376;-0,584122;0,564186;0,0410083;
0,00158376;-0,586208;0,566272;0,0411522;
0,00159376;-0,588266;0,568331;0,0412941;
0,00160376;-0,590297;0,570362;0,0414339;
0,00161376;-0,5923;0,572365;0,0415717;
0,00162376;-0,594275;0,57434;0,0417074;
0,00163376;-0,596223;0,576288;0,0418411;
0,00164376;-0,598142;0,578207;0,0419727;
0,00165376;-0,600033;0,580098;0,0421023;
0,00166376;-0,601896;0,581962;0,0422297;
0,00167376;-0,603731;0,583796;0,0423551;
0,00168376;-0,605537;0,585603;0,0424784;
0,00169376;-0,607315;0,587381;0,0425995;
0,00170376;-0,609064;0,589131;0,0427186;
0,00171376;-0,610785;0,590852;0,0428356;
0,00172376;-0,612477;0,592544;0,0429504;
0,00173376;-0,61414;0,594207;0,0430632;
0,00174376;-0,615775;0,595842;0,0431738;
0,00175376;-0,61738;0,597447;0,0432822;
0,00176376;-0,618956;0,599024;0,0433886;
0,00177376;-0,620504;0,600572;0,0434928;
0,00178376;-0,622022;0,60209;0,0435948;
0,00179376;-0,623511;0,603579;0,0436947;
0,00180376;-0,624971;0,605039;0,0437924;
0,00181376;-0,626401;0,606469;0,0438879;
0,00182376;-0,627802;0,60787;0,0439813;
0,00183376;-0,629173;0,609242;0,0440725;
0,00184376;-0,630515;0,610584;0,0441616;
0,00185376;-0,631827;0,611896;0,0442484;
0,00186376;-0,633109;0,613178;0,0443331;
0,00187376;-0,634362;0,614431;0,0444155;
0,00188376;-0,635585;0,615654;0,0444958;
0,00189376;-0,636778;0,616847;0,0445739;
0,00190376;-0,637941;0,61801;0,0446497;
0,00191376;-0,639074;0,619143;0,0447234;
0,00192376;-0,640177;0,620246;0,0447948;
0,00193376;-0,641249;0,621319;0,0448641;
0,00194376;-0,642292;0,622362;0,0449311;
0,00195376;-0,643305;0,623375;0,0449958;
0,00196376;-0,644287;0,624357;0,0450584;
0,00197376;-0,645239;0,625309;0,0451187;
0,00198376;-0,64616;0,626231;0,0451768;
0,00199376;-0,647051;0,627122;0,0452326;
0,00200376;-0,647912;0,627983;0,0452862;
0,00201376;-0,648743;0,628813;0,0453376;
0,00202376;-0,649542;0,629613;0,0453867;
0,00203376;-0,650312;0,630383;0,0454336;
0,00204376;-0,65105;0,631121;0,0454782;
0,00205376;-0,651758;0,631829;0,0455205;
0,00206376;-0,652436;0,632507;0,0455607;
0,00207376;-0,653082;0,633154;0,0455985;
0,00208376;-0,653698;0,63377;0,0456341;
0,00209376;-0,654283;0,634355;0,0456674;
0,00210376;-0,654838;0,634909;0,0456985;
0,00211376;-0,655361;0,635433;0,0457273;
0,00212376;-0,655854;0,635926;0,0457538;
0,00213376;-0,656316;0,636388;0,045778;
0,00214376;-0,656747;0,636819;0,0458;
0,00215376;-0,657147;0,637219;0,0458197;
0,00216376;-0,657517;0,637589;0,0458372;
0,00217376;-0,657855;0,637927;0,0458523;
0,00218376;-0,658162;0,638235;0,0458652;
0,00219376;-0,658439;0,638511;0,0458758;
0,00220376;-0,658684;0,638756;0,0458842;
0,00221376;-0,658899;0,638971;0,0458902;
0,00222376;-0,659082;0,639154;0,045894;
0,00223376;-0,659235;0,639307;0,0458955;
0,00224376;-0,659356;0,639428;0,0458947;
0,00225376;-0,659446;0,639519;0,0458916;
0,00226376;-0,659506;0,639578;0,0458863;
0,00227376;-0,659534;0,639607;0,0458787;
0,00228376;-0,659532;0,639604;0,0458687;
0,00229376;-0,659498;0,63957;0,0458566;
0,00230376;-0,659433;0,639506;0,0458421;
0,00231376;-0,659337;0,63941;0,0458253;
0,00232376;-0,659211;0,639283;0,0458063;
0,00233376;-0,659053;0,639125;0,045785;
0,00234376;-0,658864;0,638937;0,0457614;
0,00235376;-0,658644;0,638717;0,0457356;
0,00236376;-0,658394;0,638466;0,0457074;
0,00237376;-0,658112;0,638184;0,045677;
0,00238376;-0,657799;0,637872;0,0456443;
0,00239376;-0,657456;0,637528;0,0456094;
0,00240376;-0,657081;0,637154;0,0455721;
0,00241376;-0,656675;0,636748;0,0455326;
0,00242376;-0,656239;0,636312;0,0454909;
0,00243376;-0,655772;0,635845;0,0454468;
0,00244376;-0,655274;0,635346;0,0454005;
0,00245376;-0,654745;0,634817;0,045352;
0,00246376;-0,654185;0,634258;0,0453011;
0,00247376;-0,653595;0,633667;0,0452481;
0,00248376;-0,652973;0,633046;0,0451927;
0,00249376;-0,652322;0,632394;0,0451351;
0,00250376;-0,651639;0,631711;0,0450753;
0,00251376;-0,650926;0,630998;0,0450132;
0,00252376;-0,650182;0,630254;0,0449488;
0,00253376;-0,649407;0,62948;0,0448823;
0,00254376;-0,648602;0,628675;0,0448134;
0,00255376;-0,647767;0,627839;0,0447424;
0,00256376;-0,646901;0,626973;0,0446691;
0,00257376;-0,646004;0,626077;0,0445935;
0,00258376;-0,645078;0,62515;0,0445158;
0,00259376;-0,64412;0,624193;0,0444358;
0,00260376;-0,643133;0,623205;0,0443536;
0,00261376;-0,642115;0,622187;0,0442692;
0,00262376;-0,641068;0,621139;0,0441825;
0,00263376;-0,63999;0,620061;0,0440937;
0,00264376;-0,638881;0,618953;0,0440026;
0,00265376;-0,637743;0,617815;0,0439094;
0,00266376;-0,636575;0,616647;0,0438139;
0,00267376;-0,635377;0,615449;0,0437163;
0,00268376;-0,634149;0,614221;0,0436164;
0,00269376;-0,632891;0,612963;0,0435144;
0,00270376;-0,631604;0,611675;0,0434102;
0,00271376;-0,630287;0,610358;0,0433038;
0,00272376;-0,62894;0,609011;0,0431953;
0,00273376;-0,627563;0,607635;0,0430846;
0,00274376;-0,626158;0,606229;0,0429717;
0,00275376;-0,624722;0,604793;0,0428567;
0,00276376;-0,623258;0,603328;0,0427395;
0,00277376;-0,621764;0,601834;0,0426202;
0,00278376;-0,62024;0,600311;0,0424987;
0,00279376;-0,618688;0,598759;0,0423751;
0,00280376;-0,617107;0,597177;0,0422494;
0,00281376;-0,615496;0,595567;0,0421215;
0,00282376;-0,613857;0,593927;0,0419916;
0,00283376;-0,612189;0,592259;0,0418595;
0,00284376;-0,610492;0,590562;0,0417253;
0,00285376;-0,608766;0,588836;0,041589;
0,00286376;-0,607012;0,587082;0,0414507;
0,00287376;-0,605229;0,585299;0,0413102;
0,00288376;-0,603418;0,583487;0,0411677;
0,00289376;-0,601578;0,581648;0,041023;
0,00290376;-0,59971;0,57978;0,0408764;
0,00291376;-0,597814;0,577884;0,0407276;
0,00292376;-0,59589;0,575959;0,0405768;
0,00293376;-0,593938;0,574007;0,040424;
0,00294376;-0,591958;0,572027;0,0402691;
0,00295376;-0,58995;0,570019;0,0401122;
0,00296376;-0,587915;0,567984;0,0399533;
0,00297376;-0,585852;0,56592;0,0397923;
0,00298376;-0,583761;0,56383;0,0396294;
0,00299376;-0,581643;0,561712;0,0394644;
0,00300376;-0,579498;0,559566;0,0392974;
0,00301376;-0,577325;0,557393;0,0391285;
0,00302376;-0,575126;0,555194;0,0389576;
0,00303376;-0,572899;0,552967;0,0387847;
0,00304376;-0,570646;0,550713;0,0386098;
0,00305376;-0,568365;0,548433;0,038433;
0,00306376;-0,566058;0,546126;0,0382542;
0,00307376;-0,563725;0,543792;0,0380735;
0,00308376;-0,561365;0,541432;0,0378909;
0,00309376;-0,558979;0,539046;0,0377064;
0,00310376;-0,556566;0,536633;0,0375199;
0,00311376;-0,554128;0,534194;0,0373315;
0,00312376;-0,551663;0,531729;0,0371413;
0,00313376;-0,549172;0,529239;0,0369491;
0,00314376;-0,546656;0,526722;0,0367551;
0,00315376;-0,544114;0,52418;0,0365592;
0,00316376;-0,541547;0,521613;0,0363614;
0,00317376;-0,538954;0,51902;0,0361618;
0,00318376;-0,536336;0,516402;0,0359604;
0,00319376;-0,533693;0,513758;0,0357571;
0,00320376;-0,531025;0,51109;0,035552;
0,00321376;-0,528331;0,508396;0,0353451;
0,00322376;-0,525614;0,505678;0,0351363;
0,00323376;-0,522871;0,502936;0,0349258;
0,00324376;-0,520104;0,500169;0,0347135;
0,00325376;-0,517313;0,497377;0,0344994;
0,00326376;-0,514497;0,494561;0,0342836;
0,00327376;-0,511657;0,491721;0,034066;
0,00328376;-0,508794;0,488857;0,0338467;
0,00329376;-0,505906;0,48597;0,0336256;
0,00330376;-0,502995;0,483058;0,0334028;
0,00331376;-0,50006;0,480123;0,0331783;
0,00332376;-0,497102;0,477165;0,0329521;
0,00333376;-0,494121;0,474183;0,0327242;
0,00334376;-0,491116;0,471179;0,0324947;
0,00335376;-0,488089;0,468151;0,0322634;
0,00336376;-0,485038;0,4651;0,0320305;
0,00337376;-0,481965;0,462027;0,031796;
0,00338376;-0,47887;0,458931;0,0315598;
0,00339376;-0,475752;0,455813;0,031322;
0,00340376;-0,472611;0,452673;0,0310825;
0,00341376;-0,469449;0,44951;0,0308415;
0,00342376;-0,466265;0,446326;0,0305989;
0,00343376;-0,463059;0,443119;0,0303547;
0,00344376;-0,459831;0,439891;0,0301089;
0,00345376;-0,456582;0,436642;0,0298616;
0,00346376;-0,453311;0,433371;0,0296127;
0,00347376;-0,450019;0,430079;0,0293623;
0,00348376;-0,446707;0,426766;0,0291103;
0,00349376;-0,443373;0,423432;0,0288569;
0,00350376;-0,440019;0,420078;0,0286019;
0,00351376;-0,436644;0,416703;0,0283455;
0,00352376;-0,433248;0,413307;0,0280876;
0,00353376;-0,429833;0,409892;0,0278282;
0,00354376;-0,426398;0,406456;0,0275674;
0,00355376;-0,422942;0,403;0,0273051;
0,00356376;-0,419467;0,399525;0,0270414;
0,00357376;-0,415972;0,39603;0,0267763;
0,00358376;-0,412458;0,392516;0,0265098;
0,00359376;-0,408925;0,388982;0,0262419;
0,00360376;-0,405372;0,38543;0,0259727;
0,00361376;-0,401801;0,381858;0,025702;
0,00362376;-0,398211;0,378268;0,0254301;
0,00363376;-0,394603;0,374659;0,0251567;
0,00364376;-0,390976;0,371032;0,0248821;
0,00365376;-0,387331;0,367387;0,0246061;
0,00366376;-0,383668;0,363723;0,0243289;
0,00367376;-0,379987;0,360042;0,0240503;
0,00368376;-0,376288;0,356343;0,0237705;
0,00369376;-0,372572;0,352627;0,0234894;
0,00370376;-0,368838;0,348893;0,0232071;
0,00371376;-0,365088;0,345142;0,0229236;
0,00372376;-0,36132;0,341374;0,0226388;
0,00373376;-0,357536;0,33759;0,0223528;
0,00374376;-0,353735;0,333789;0,0220656;
0,00375376;-0,349918;0,329971;0,0217773;
0,00376376;-0,346084;0,326137;0,0214878;
0,00377376;-0,342234;0,322287;0,0211971;
0,00378376;-0,338369;0,318421;0,0209053;
0,00379376;-0,334487;0,31454;0,0206123;
0,00380376;-0,330591;0,310643;0,0203183;
0,00381376;-0,326679;0,306731;0,0200232;
0,00382376;-0,322752;0,302803;0,0197269;
0,00383376;-0,318809;0,298861;0,0194296;
0,00384376;-0,314853;0,294904;0,0191313;
0,00385376;-0,310881;0,290932;0,0188319;
0,00386376;-0,306895;0,286946;0,0185315;
0,00387376;-0,302895;0,282946;0,0182301;
0,00388376;-0,298881;0,278932;0,0179276;
0,00389376;-0,294854;0,274904;0,0176242;
0,00390376;-0,290812;0,270862;0,0173199;
0,00391376;-0,286757;0,266807;0,0170145;
0,00392376;-0,282689;0,262739;0,0167083;
0,00393376;-0,278608;0,258657;0,0164011;
0,00394376;-0,274514;0,254563;0,0160929;
0,00395376;-0,270408;0,250456;0,0157839;
0,00396376;-0,266289;0,246337;0,015474;
0,00397376;-0,262158;0,242206;0,0151633;
0,00398376;-0,258015;0,238062;0,0148517;
0,00399376;-0,253859;0,233907;0,0145392;
0,00400376;-0,249693;0,22974;0,014226;
0,00401376;-0,245515;0,225561;0,0139119;
0,00402376;-0,241325;0,221372;0,013597;
0,00403376;-0,237125;0,217171;0,0132813;
0,00404376;-0,232913;0,212959;0,0129649;
0,00405376;-0,228691;0,208737;0,0126478;
0,00406376;-0,224459;0,204504;0,0123299;
0,00407376;-0,220216;0,200261;0,0120112;
0,00408376;-0,215963;0,196008;0,0116919;
0,00409376;-0,211701;0,191745;0,0113719;
0,00410376;-0,207429;0,187473;0,0110512;
0,00411376;-0,203147;0,183191;0,0107299;
0,00412376;-0,198856;0,1789;0,0104079;
0,00413376;-0,194556;0,1746;0,0100853;
0,00414376;-0,190248;0,170291;0,00976204;
0,00415376;-0,18593;0,165973;0,00943822;
0,00416376;-0,181605;0,161647;0,00911381;
0,00417376;-0,177271;0,157313;0,00878884;
0,00418376;-0,172929;0,152971;0,00846331;
0,00419376;-0,168579;0,148621;0,00813725;
0,00420376;-0,164222;0,144263;0,00781068;
0,00421376;-0,159857;0,139898;0,00748359;
0,00422376;-0,155485;0,135526;0,00715602;
0,00423376;-0,151107;0,131147;0,00682797;
0,00424376;-0,146721;0,126762;0,00649947;
0,00425376;-0,142329;0,122369;0,00617052;
0,00426376;-0,137931;0,117971;0,00584115;
0,00427376;-0,133526;0,113566;0,00551137;
0,00428376;-0,129116;0,109155;0,00518119;
0,00429376;-0,1247;0,104739;0,00485063;
0,00430376;-0,120278;0,100317;0,0045197;
0,00431376;-0,115852;0,09589;0,00418843;
0,00432376;-0,11142;0,0914579;0,00385683;
0,00433376;-0,106983;0,0870209;0,0035249;
0,00434376;-0,102542;0,0825793;0,00319268;
0,00435376;-0,0980961;0,0781333;0,00286017;
0,00436376;-0,0936461;0,073683;0,0025274;
0,00437376;-0,0891922;0,0692288;0,00219436;
0,00438376;-0,0847344;0,0647707;0,0018611;
0,00439376;-0,0802731;0,0603091;0,0015276;
0,00440376;-0,0758085;0,0558442;0,00119391;
0,00441376;-0,0713407;0,0513761;0,000860018;
0,00442376;-0,0668699;0,0469051;0,000525955;
0,00443376;-0,0623965;0,0424313;0,000191734;
0,00444376;-0,0579205;0,0379551;-0,00014263;
0,00445376;-0,0534423;0,0334765;-0,000477121;
0,00446376;-0,0489619;0,0289959;-0,000811723;
0,00447376;-0,0444798;0,0245134;-0,00114642;
0,00448376;-0,0399959;0,0200293;-0,0014812;
0,00449376;-0,0355107;0,0155437;-0,00181603;
0,00450376;-0,0310242;0,011057;-0,00215092;
0,00451376;-0,0265367;0,00656918;-0,00248584;
0,00452376;-0,0220484;0,0020806;-0,00282077;
0,00453376;-0,0175596;-0,00240855;-0,00315571;
0,00454376;-0,0130703;-0,00689806;-0,00349062;
0,00455376;-0,00858096;-0,0113877;-0,00382551;
0,00456376;-0,00409167;-0,0158773;-0,00416034;
0,00457376;0,000397353;-0,0203666;-0,00449511;
0,00458376;0,00488587;-0,0248555;-0,0048298;
0,00459376;0,00937369;-0,0293436;-0,0051644;
0,00460376;0,0138606;-0,0338307;-0,00549888;
0,00461376;0,0183463;-0,0383168;-0,00583324;
0,00462376;0,0228307;-0,0428015;-0,00616745;
0,00463376;0,0273135;-0,0472846;-0,0065015;
0,00464376;0,0317946;-0,0517659;-0,00683538;
0,00465376;0,0362736;-0,0562453;-0,00716906;
0,00466376;0,0407505;-0,0607224;-0,00750254;
0,00467376;0,0452249;-0,0651971;-0,00783579;
0,00468376;0,0496967;-0,0696692;-0,0081688;
0,00469376;0,0541656;-0,0741384;-0,00850156;
0,00470376;0,0586315;-0,0786046;-0,00883405;
0,00471376;0,063094;-0,0830675;-0,00916625;
0,00472376;0,0675531;-0,0875269;-0,00949815;
