time;V(/BiasOut)1;V(/VoutN)1;V(/VoutP)1;
0;-0,00102348;-0,0109874;-0,0109874;
1e-06;-0,00102342;-0,0110752;-0,0109298;
2e-06;-0,0010233;-0,0112283;-0,0108156;
4e-06;-0,00102287;-0,0116388;-0,0104873;
8e-06;-0,00102089;-0,0129033;-0,0093902;
1,6e-05;-0,00101249;-0,016231;-0,00638596;
2,77927e-05;-0,000989724;-0,0216875;-0,00138768;
4,12204e-05;-0,000949501;-0,0279657;0,00439765;
6,54804e-05;-0,000841468;-0,0392617;0,0148709;
0,000114;-0,000507525;-0,061713;0,0359097;
0,00021104;0,00051607;-0,106069;0,0781532;
0,00031104;0,00191516;-0,150981;0,121615;
0,00041104;0,00351491;-0,195003;0,164662;
0,00051104;0,00521783;-0,23801;0,20701;
0,00061104;0,00695975;-0,279845;0,248403;
0,00071104;0,00869686;-0,320339;0,288617;
0,00081104;0,0103978;-0,359316;0,327437;
0,00091104;0,0120392;-0,396602;0,364671;
0,00101104;0,0136021;-0,432025;0,400132;
0,00111104;0,0150713;-0,465419;0,433649;
0,00121104;0,0164333;-0,496628;0,465057;
0,00131104;0,0176764;-0,525503;0,494208;
0,00141104;0,01879;-0,551907;0,52096;
0,00151104;0,0197648;-0,575715;0,545186;
0,00161104;0,0205921;-0,596813;0,566769;
0,00171104;0,0212643;-0,615099;0,585608;
0,00181104;0,0217746;-0,630488;0,601611;
0,00191104;0,0221171;-0,642903;0,614704;
0,00201104;0,0222868;-0,652288;0,624823;
0,00211104;0,0222796;-0,658596;0,631921;
0,00221104;0,0220922;-0,661797;0,635963;
0,00231104;0,0217225;-0,661875;0,636931;
0,00241104;0,0211692;-0,658831;0,63482;
0,00251104;0,0204318;-0,652677;0,62964;
0,00261104;0,019511;-0,643445;0,621417;
0,00271104;0,0184083;-0,631177;0,610189;
0,00281104;0,0171264;-0,615933;0,596011;
0,00291104;0,0156685;-0,597784;0,57895;
0,00301104;0,0140391;-0,576818;0,559087;
0,00311104;0,0122436;-0,553134;0,536519;
0,00321104;0,010288;-0,526845;0,511351;
0,00331104;0,00817941;-0,498078;0,483706;
0,00341104;0,00592573;-0,466968;0,453714;
0,00351104;0,00353558;-0,433666;0,421519;
0,00361104;0,0010184;-0,398329;0,387275;
0,00371104;-0,00161571;-0,361127;0,351145;
0,00381104;-0,00435594;-0,322237;0,313301;
0,00391104;-0,00719089;-0,281845;0,273925;
0,00401104;-0,0101086;-0,240145;0,233204;
0,00411104;-0,0130966;-0,197334;0,191333;
0,00421104;-0,016142;-0,153618;0,148511;
0,00431104;-0,0192314;-0,109205;0,104943;
0,00441104;-0,0223513;-0,0643088;0,0608364;
0,00451104;-0,0254877;-0,0191423;0,0164023;
0,00461104;-0,0286266;0,0260779;-0,0281479;
0,00471104;-0,0317537;0,0711361;-0,0726011;
0,00481104;-0,0348548;0,115817;-0,116746;
0,00491104;-0,0379156;0,159906;-0,160371;
0,00501104;-0,0409218;0,203194;-0,203269;
0,00511104;-0,0438595;0,245473;-0,245234;
0,00521104;-0,0467147;0,28654;-0,286068;
0,00531104;-0,049474;0,326201;-0,325574;
0,00541104;-0,0521239;0,364265;-0,363565;
0,00551104;-0,0546518;0,40055;-0,39986;
0,00561104;-0,0570452;0,434882;-0,434285;
0,00571104;-0,0592923;0,467097;-0,466677;
0,00581104;-0,0613817;0,497042;-0,496881;
0,00591104;-0,0633029;0,524572;-0,524753;
0,00601104;-0,0650459;0,549557;-0,550161;
0,00611104;-0,0666014;0,571875;-0,572983;
0,00621104;-0,067961;0,591421;-0,593112;
0,00631104;-0,0691172;0,608101;-0,61045;
0,00641104;-0,070063;0,621834;-0,624917;
0,00651104;-0,0707927;0,632555;-0,636442;
0,00661104;-0,0713012;0,640212;-0,644972;
0,00671104;-0,0715846;0,644768;-0,650466;
0,00681104;-0,0716399;0,646201;-0,652899;
0,00691104;-0,0714648;0,644503;-0,652258;
0,00701104;-0,0710584;0,639683;-0,648549;
0,00711104;-0,0704207;0,631763;-0,641788;
0,00721104;-0,0695524;0,62078;-0,632009;
0,00731104;-0,0684557;0,606786;-0,619259;
0,00741104;-0,0671333;0,589847;-0,603598;
0,00751104;-0,0655892;0,570045;-0,585103;
0,00761104;-0,0638283;0,547472;-0,563863;
0,00771104;-0,0618564;0,522237;-0,539978;
0,00781104;-0,0596802;0,49446;-0,513564;
0,00791104;-0,0573074;0,464271;-0,484747;
0,00801104;-0,0547465;0,431816;-0,453666;
0,00811104;-0,0520067;0,397249;-0,420468;
0,00821104;-0,0490982;0,360734;-0,385314;
0,00831104;-0,0460317;0,322445;-0,348371;
0,00841104;-0,0428187;0,282564;-0,309817;
0,00851104;-0,0394715;0,241281;-0,269836;
0,00861104;-0,0360026;0,198794;-0,228619;
0,00871104;-0,0324253;0,155304;-0,186364;
0,00881104;-0,0287534;0,111018;-0,143274;
0,00891104;-0,0250008;0,0661478;-0,0995532;
0,00901104;-0,0211821;0,0209067;-0,0554123;
0,00911104;-0,0173118;-0,0244894;-0,0110621;
0,00921104;-0,0134049;-0,0698247;0,0332849;
0,00931104;-0,00947647;-0,114883;0,0774167;
0,00941104;-0,00554148;-0,159449;0,121122;
0,00951104;-0,00161506;-0,203312;0,164191;
0,00961104;0,00228777;-0,246261;0,206419;
0,00971104;0,00615213;-0,288093;0,247603;
0,00981104;0,00996335;-0,328608;0,287545;
0,00991104;0,013707;-0,367613;0,326056;
0,010011;0,0173691;-0,404922;0,36295;
0,010111;0,020936;-0,440358;0,398051;
0,010211;0,0243943;-0,473752;0,43119;
0,010311;0,0277316;-0,504945;0,46221;
0,010411;0,0309356;-0,533788;0,490961;
0,010511;0,0339949;-0,560143;0,517306;
0,010611;0,0368988;-0,583887;0,541119;
0,010711;0,0396371;-0,604904;0,562285;
0,010811;0,0422006;-0,623097;0,580704;
0,010911;0,0445809;-0,638377;0,596286;
0,011011;0,0467702;-0,650673;0,608957;
0,011111;0,048762;-0,659926;0,618657;
0,011211;0,0505504;-0,666092;0,625338;
0,011311;0,0521304;-0,669142;0,628969;
0,011411;0,0534983;-0,669062;0,629531;
0,011511;0,054651;-0,665853;0,627022;
0,011611;0,0555866;-0,65953;0,621453;
0,011711;0,0563041;-0,650123;0,612851;
0,011811;0,0568036;-0,637678;0,601257;
0,011911;0,057086;-0,622255;0,586725;
0,012011;0,0571533;-0,603927;0,569325;
0,012111;0,0570085;-0,582782;0,54914;
0,012211;0,0566554;-0,558921;0,526265;
0,012311;0,056099;-0,532459;0,50081;
0,012411;0,0553448;-0,503521;0,472897;
0,012511;0,0543995;-0,472247;0,442658;
0,012611;0,0532706;-0,438786;0,410237;
0,012711;0,0519662;-0,403297;0,37579;
0,012811;0,0504953;-0,365951;0,339481;
0,012911;0,0488677;-0,326925;0,301482;
0,013011;0,0470936;-0,286406;0,261976;
0,013111;0,045184;-0,244588;0,22115;
0,013211;0,0431504;-0,20167;0,1792;
0,013311;0,041005;-0,157857;0,136327;
0,013411;0,0387599;-0,11336;0,0927334;
0,013511;0,0364282;-0,0683888;0,0486292;
0,013611;0,034023;-0,0231598;0,00422446;
0,013711;0,0315575;0,0221115;-0,0402688;
0,013811;0,0290455;0,0672089;-0,084638;
0,013911;0,0265005;0,111917;-0,128671;
0,014011;0,0239363;0,156023;-0,172158;
0,014111;0,0213665;0,199316;-0,214892;
0,014211;0,0188049;0,241588;-0,256667;
0,014311;0,0162649;0,28264;-0,297284;
0,014411;0,0137597;0,322274;-0,336549;
0,014511;0,0113023;0,360302;-0,374275;
0,014611;0,00890525;0,396542;-0,410282;
0,014711;0,00658088;0,430821;-0,444396;
0,014811;0,0043409;0,462976;-0,476455;
0,014911;0,00219653;0,492853;-0,506307;
0,015011;0,000158432;0,520311;-0,533807;
0,015111;-0,00176338;0,545217;-0,558825;
0,015211;-0,00355954;0,567454;-0,58124;
0,015311;-0,00522144;0,586915;-0,600946;
0,015411;-0,00674119;0,603509;-0,617849;
0,015511;-0,00811174;0,617155;-0,631866;
0,015611;-0,00932684;0,627789;-0,642931;
0,015711;-0,0103811;0,635361;-0,650991;
0,015811;-0,0112701;0,639835;-0,656007;
0,015911;-0,0119902;0,641189;-0,657954;
0,016011;-0,0125388;0,639418;-0,656823;
0,016111;-0,0129141;0,634531;-0,65262;
0,016211;-0,0131154;0,62655;-0,645363;
0,016311;-0,0131428;0,615516;-0,635087;
0,016411;-0,0129975;0,601479;-0,621841;
0,016511;-0,0126816;0,584509;-0,605688;
0,016611;-0,0121979;0,564687;-0,586703;
0,016711;-0,0115505;0,542107;-0,564978;
0,016811;-0,0107441;0,516878;-0,540616;
0,016911;-0,00978428;0,489121;-0,513733;
0,017011;-0,00867763;0,458969;-0,484457;
0,017111;-0,00743141;0,426565;-0,452926;
0,017211;-0,00605369;0,392067;-0,419291;
0,017311;-0,00455326;0,355637;-0,383713;
0,017411;-0,0029396;0,317452;-0,34636;
0,017511;-0,00122281;0,277693;-0,307411;
0,017611;0,000586407;0,236552;-0,267051;
0,017711;0,00247682;0,194224;-0,225472;
0,017811;0,00443674;0,150913;-0,182873;
0,017911;0,00645404;0,106827;-0,139455;
0,018011;0,00851624;0,0621745;-0,095427;
0,018111;0,0106106;0,0171712;-0,0509977;
0,018211;0,012724;-0,0279682;-0,00637877;
0,018311;0,0148435;-0,0730274;0,0382171;
0,018411;0,0169556;-0,117791;0,0825775;
0,018511;0,0190471;-0,162045;0,126491;
0,018611;0,0211048;-0,205576;0,169749;
0,018711;0,0231155;-0,248178;0,212144;
0,018811;0,0250661;-0,289646;0,253476;
0,018911;0,026944;-0,329781;0,293547;
0,019011;0,0287366;-0,368391;0,332166;
0,019111;0,0304319;-0,405292;0,369149;
0,019211;0,0320181;-0,440307;0,404321;
0,019311;0,0334841;-0,473268;0,437513;
0,019411;0,0348191;-0,504017;0,468569;
0,019511;0,0360132;-0,532406;0,497339;
0,019611;0,0370568;-0,558301;0,523688;
0,019711;0,0379412;-0,581577;0,547489;
0,019811;0,0386585;-0,602121;0,56863;
0,019911;0,0392013;-0,619836;0,58701;
0,020011;0,0395634;-0,634637;0,602541;
0,020111;0,039739;-0,646453;0,615151;
0,020211;0,0397236;-0,655225;0,624779;
0,020311;0,0395135;-0,660914;0,63138;
0,020411;0,0391056;-0,663489;0,634922;
0,020511;0,0384983;-0,66294;0,635389;
0,020611;0,0376905;-0,659268;0,63278;
0,020711;0,0366823;-0,652491;0,627107;
0,020811;0,0354747;-0,64264;0,618397;
0,020911;0,0340697;-0,629761;0,606693;
0,021011;0,0324702;-0,613917;0,592051;
0,021111;0,0306802;-0,595183;0,57454;
0,021211;0,0287045;-0,573647;0,554246;
0,021311;0,0265489;-0,549412;0,531265;
0,021411;0,02422;-0,522593;0,505707;
0,021511;0,0217254;-0,493319;0,477695;
0,021611;0,0190734;-0,461729;0,447363;
0,021711;0,0162732;-0,427973;0,414855;
0,021811;0,0133348;-0,392212;0,380328;
0,021911;0,0102687;-0,354617;0,343946;
0,022011;0,00708634;-0,315366;0,305883;
0,022111;0,00379958;-0,274649;0,266322;
0,022211;0,000420931;-0,232657;0,225451;
0,022311;-0,00303662;-0,189593;0,183466;
0,022411;-0,00655962;-0,14566;0,140567;
0,022511;-0,0101342;-0,10107;0,09696;
0,022611;-0,0137463;-0,0560337;0,0528525;
0,022711;-0,0173814;-0,0107673;0,00845556;
0,022811;-0,021025;0,0345136;-0,0360187;
0,022911;-0,0246623;0,0795928;-0,0803579;
0,023011;-0,0282785;0,124255;-0,12435;
0,023111;-0,0318588;0,168288;-0,167785;
0,023211;-0,0353886;0,21148;-0,210456;
0,023311;-0,0388533;0,253625;-0,252158;
0,023411;-0,0422385;0,294523;-0,292693;
0,023511;-0,0455301;0,333979;-0,331867;
0,023611;-0,0487145;0,371802;-0,369493;
0,023711;-0,0517784;0,407814;-0,405391;
0,023811;-0,0547088;0,441842;-0,43939;
0,023911;-0,0574936;0,473723;-0,471328;
0,024011;-0,0601209;0,503306;-0,501051;
0,024111;-0,0625797;0,530448;-0,528419;
0,024211;-0,0648596;0,555021;-0,553301;
0,024311;-0,0669509;0,576906;-0,575578;
0,024411;-0,0688448;0,596;-0,595144;
0,024511;-0,0705333;0,61221;-0,611905;
0,024611;-0,0720091;0,625459;-0,625782;
0,024711;-0,073266;0,635684;-0,636709;
0,024811;-0,0742986;0,642836;-0,644633;
0,024911;-0,0751026;0,64688;-0,649517;
0,025011;-0,0756745;0,647798;-0,651338;
0,025111;-0,0760118;0,645583;-0,650088;
0,025211;-0,0761133;0,640247;-0,645772;
0,025311;-0,0759783;0,631815;-0,638411;
0,025411;-0,0756075;0,620326;-0,628042;
0,025511;-0,0750025;0,605836;-0,614713;
0,025611;-0,0741658;0,588413;-0,598488;
0,025711;-0,073101;0,56814;-0,579447;
0,025811;-0,0718127;0,545114;-0,557679;
0,025911;-0,0703063;0,519444;-0,533288;
0,026011;-0,0685883;0,491252;-0,506393;
0,026111;-0,0666659;0,460674;-0,477121;
0,026211;-0,0645473;0,427853;-0,445613;
0,026311;-0,0622415;0,392947;-0,412019;
0,026411;-0,0597583;0,356123;-0,376501;
0,026511;-0,0571081;0,317554;-0,339228;
0,026611;-0,0543021;0,277426;-0,300379;
0,026711;-0,0513521;0,235929;-0,260139;
0,026811;-0,0482705;0,193261;-0,218702;
0,026911;-0,0450703;0,149626;-0,176265;
0,027011;-0,0417648;0,105231;-0,133031;
0,027111;-0,0383678;0,0602879;-0,0892082;
0,027211;-0,0348933;0,0150107;-0,0450054;
0,027311;-0,0313558;-0,0303848;-0,000634258;
0,027411;-0,0277699;-0,0756823;0,0436928;
0,027511;-0,0241502;-0,120666;0,0877638;
0,027611;-0,0205116;-0,165121;0,131368;
0,027711;-0,0168687;-0,208837;0,174296;
0,027811;-0,0132365;-0,251604;0,216343;
0,027911;-0,00962938;-0,293219;0,257307;
0,028011;-0,00606177;-0,333484;0,296993;
0,028111;-0,00254779;-0,372208;0,33521;
0,028211;0,000898776;-0,409204;0,371775;
0,028311;0,00426456;-0,444299;0,406514;
0,028411;0,00753662;-0,477324;0,43926;
0,028511;0,0107026;-0,508121;0,469856;
0,028611;0,0137505;-0,536546;0,498156;
0,028711;0,0166693;-0,562462;0,524023;
0,028811;0,0194483;-0,585746;0,547335;
0,028911;0,0220778;-0,606288;0,567978;
0,029011;0,0245487;-0,62399;0,585854;
0,029111;0,0268527;-0,638767;0,600878;
0,029211;0,0289825;-0,650551;0,612976;
0,029311;0,0309315;-0,659284;0,622091;
0,029411;0,032694;-0,664926;0,628179;
0,029511;0,0342654;-0,667451;0,63121;
0,029611;0,0356419;-0,666846;0,631169;
0,029711;0,0368206;-0,663115;0,628055;
0,029811;0,0377997;-0,656277;0,621885;
0,029911;0,0385784;-0,646364;0,612685;
0,030011;0,0391568;-0,633424;0,6005;
0,030111;0,0395358;-0,61752;0,585388;
0,030211;0,0397176;-0,598728;0,56742;
0,030311;0,0397051;-0,577138;0,546682;
0,030411;0,0395022;-0,552854;0,523272;
0,030511;0,0391137;-0,525991;0,497301;
0,030611;0,0385452;-0,496679;0,468894;
0,030711;0,0378034;-0,465058;0,438185;
0,030811;0,0368955;-0,431279;0,405321;
0,030911;0,0358297;-0,395504;0,370458;
0,031011;0,0346148;-0,357904;0,333763;
0,031111;0,0332603;-0,318659;0,295409;
0,031211;0,0317765;-0,277957;0,255581;
0,031311;0,030174;-0,235993;0,214468;
0,031411;0,0284641;-0,192967;0,172266;
0,031511;0,0266586;-0,149084;0,129176;
0,031611;0,0247697;-0,104555;0,0854031;
0,031711;0,0228099;-0,0595931;0,0411569;
0,031811;0,0207919;-0,0144125;-0,00335193;
0,031911;0,0187288;0,0307705;-0,0479111;
0,032011;0,0166338;0,07574;-0,0923082;
0,032111;0,0145201;0,120281;-0,136331;
0,032211;0,0124011;0,164181;-0,17977;
0,032311;0,01029;0,207229;-0,222418;
0,032411;0,00819989;0,249221;-0,264072;
0,032511;0,00614382;0,289955;-0,304532;
0,032611;0,0041345;0,329236;-0,343605;
0,032711;0,00218434;0,366878;-0,381106;
0,032811;0,00030542;0,4027;-0,416855;
0,032911;-0,00149063;0,436531;-0,450681;
0,033011;-0,00319266;0,46821;-0,482424;
0,033111;-0,00479004;0,497584;-0,511931;
0,033211;-0,00627277;0,524514;-0,539062;
0,033311;-0,00763146;0,548872;-0,563687;
0,033411;-0,00885743;0,57054;-0,585689;
0,033511;-0,00994272;0,589416;-0,604963;
0,033611;-0,0108801;0,605408;-0,621417;
0,033711;-0,0116633;0,618442;-0,634971;
0,033811;-0,0122868;0,628454;-0,645562;
0,033911;-0,0127458;0,635398;-0,653138;
0,034011;-0,0130366;0,639239;-0,657664;
0,034111;-0,0131564;0,639959;-0,659118;
0,034211;-0,0131032;0,637556;-0,657492;
0,034311;-0,0128761;0,632041;-0,652795;
0,034411;-0,012475;0,62344;-0,645048;
0,034511;-0,0119009;0,611794;-0,634289;
0,034611;-0,0111556;0,59716;-0,620568;
0,034711;-0,0102418;0,579607;-0,603952;
0,034811;-0,00916328;0,559219;-0,584519;
0,034911;-0,0079247;0,536094;-0,562361;
0,035011;-0,00653152;0,510343;-0,537585;
0,035111;-0,0049901;0,482089;-0,510308;
0,035211;-0,00330763;0,451466;-0,480661;
0,035311;-0,00149209;0,418622;-0,448785;
0,035411;0,000447785;0,383713;-0,414831;
0,035511;0,00250254;0,346907;-0,378961;
0,035611;0,00466205;0,308379;-0,341348;
0,035711;0,00691558;0,268314;-0,302169;
0,035811;0,00925183;0,226903;-0,261611;
0,035911;0,011659;0,184345;-0,219868;
0,036011;0,0141247;0,140843;-0,17714;
0,036111;0,0166364;0,0966048;-0,133628;
0,036211;0,019181;0,0518425;-0,0895421;
0,036311;0,0217452;0,00677002;-0,0450908;
0,036411;0,0243156;-0,038397;-0,000486452;
0,036511;0,0268784;-0,0834425;0,0440584;
0,036611;0,0294201;-0,128151;0,0883315;
0,036711;0,0319268;-0,172309;0,132122;
0,036811;0,034385;-0,215704;0,175221;
0,036911;0,0367809;-0,258129;0,217423;
0,037011;0,0391014;-0,299382;0,258527;
0,037111;0,0413334;-0,339264;0,298337;
0,037211;0,0434639;-0,377586;0,336664;
0,037311;0,0454808;-0,414162;0,373325;
0,037411;0,0473719;-0,448819;0,408146;
0,037511;0,049126;-0,48139;0,44096;
0,037611;0,050732;-0,51172;0,471612;
0,037711;0,0521799;-0,539662;0,499956;
0,037811;0,0534598;-0,565083;0,525856;
0,037911;0,0545631;-0,587862;0,54919;
0,038011;0,0554816;-0,607889;0,569846;
0,038111;0,0562079;-0,625067;0,587727;
0,038211;0,0567357;-0,639315;0,602748;
0,038311;0,0570592;-0,650563;0,614837;
0,038411;0,0571739;-0,658758;0,623937;
0,038511;0,0570759;-0,66386;0,630005;
0,038611;0,0567625;-0,665844;0,633013;
0,038711;0,0562318;-0,664701;0,632947;
0,038811;0,055483;-0,660434;0,629808;
0,038911;0,0545161;-0,653064;0,623611;
0,039011;0,0533324;-0,642626;0,614386;
0,039111;0,0519338;-0,629168;0,602178;
0,039211;0,0503235;-0,612756;0,587045;
0,039311;0,0485056;-0,593466;0,569061;
0,039411;0,046485;-0,571391;0,548312;
0,039511;0,0442677;-0,546634;0,524896;
0,039611;0,0418606;-0,519315;0,498928;
0,039711;0,0392713;-0,489562;0,47053;
0,039811;0,0365086;-0,457518;0,439839;
0,039911;0,0335816;-0,423335;0,407003;
0,040011;0,0305007;-0,387176;0,372177;
0,040111;0,0272767;-0,349213;0,33553;
0,040211;0,0239212;-0,309627;0,297236;
0,040311;0,0204463;-0,268607;0,257479;
0,040411;0,0168648;-0,226347;0,216448;
0,040511;0,01319;-0,18305;0,174342;
0,040611;0,0094356;-0,138922;0,131359;
0,040711;0,0056157;-0,094172;0,0877076;
0,040811;0,00174475;-0,0490148;0,0435951;
0,040911;-0,00216255;-0,00366514;-0,000767192;
0,041011;-0,00609129;0,0416608;-0,0451671;
0,041111;-0,0100264;0,0867468;-0,0893922;
0,041211;-0,0139529;0,131378;-0,133231;
0,041311;-0,0178556;0,175342;-0,176474;
0,041411;-0,0217196;0,218428;-0,218914;
0,041511;-0,0255299;0,260432;-0,260349;
0,041611;-0,0292719;0,301153;-0,300579;
0,041711;-0,0329313;0,340397;-0,339414;
0,041811;-0,036494;0,377977;-0,376666;
0,041911;-0,0399464;0,413713;-0,412159;
0,042011;-0,0432753;0,447436;-0,445722;
0,042111;-0,0464682;0,478984;-0,477194;
0,042211;-0,0495129;0,508207;-0,506426;
0,042311;-0,052398;0,534965;-0,533278;
0,042411;-0,0551129;0,559132;-0,55762;
0,042511;-0,0576476;0,580591;-0,579338;
0,042611;-0,0599929;0,599241;-0,598326;
0,042711;-0,0621404;0,614992;-0,614494;
0,042811;-0,0640826;0,62777;-0,627765;
0,042911;-0,0658129;0,637513;-0,638076;
0,043011;-0,0673257;0,644176;-0,645376;
0,043111;-0,0686161;0,647725;-0,649631;
0,043211;-0,0696805;0,648146;-0,650821;
0,043311;-0,070516;0,645434;-0,64894;
0,043411;-0,0711208;0,639605;-0,643997;
0,043511;-0,0714942;0,630684;-0,636016;
0,043611;-0,0716364;0,618716;-0,625034;
0,043711;-0,0715485;0,603756;-0,611104;
0,043811;-0,0712329;0,585877;-0,594293;
0,043911;-0,0706927;0,565164;-0,57468;
0,044011;-0,069932;0,541715;-0,552361;
0,044111;-0,0689559;0,515643;-0,52744;
0,044211;-0,0677705;0,487071;-0,500039;
0,044311;-0,0663826;0,456137;-0,470286;
0,044411;-0,0648;0,422987;-0,438325;
0,044511;-0,0630312;0,387781;-0,404309;
0,044611;-0,0610857;0,350685;-0,368399;
0,044711;-0,0589734;0,311877;-0,330768;
0,044811;-0,0567051;0,271542;-0,291596;
0,044911;-0,0542921;0,229872;-0,251069;
0,045011;-0,0517464;0,187066;-0,209382;
0,045111;-0,0490804;0,143329;-0,166733;
0,045211;-0,0463071;0,0988682;-0,123327;
0,045311;-0,0434397;0,0538964;-0,0793712;
0,045411;-0,0404919;0,00862794;-0,0350757;
0,045511;-0,0374775;-0,0367213;0,00934775;
0,045611;-0,0344107;-0,0819351;0,0536866;
0,045711;-0,0313056;-0,126798;0,097729;
0,045811;-0,0281765;-0,171096;0,141264;
0,045911;-0,0250377;-0,214617;0,184084;
0,046011;-0,0219035;-0,257156;0,225983;
0,046111;-0,0187877;-0,298507;0,266762;
0,046211;-0,0157044;-0,338476;0,306225;
0,046311;-0,0126672;-0,37687;0,344184;
0,046411;-0,00968912;-0,413508;0,380456;
0,046511;-0,00678321;-0,448214;0,414869;
0,046611;-0,00396182;-0,480824;0,447257;
0,046711;-0,00123683;-0,511181;0,477466;
0,046811;0,00138044;-0,539142;0,50535;
0,046911;0,0038793;-0,564573;0,530777;
0,047011;0,00624972;-0,587354;0,553624;
0,047111;0,00848239;-0,607376;0,573781;
0,047211;0,0105688;-0,624544;0,591153;
0,047311;0,0125011;-0,638776;0,605655;
0,047411;0,0142725;-0,650005;0,617218;
0,047511;0,0158768;-0,658178;0,625787;
0,047611;0,017309;-0,663256;0,631319;
0,047711;0,0185648;-0,665216;0,633789;
0,047811;0,0196408;-0,664048;0,633183;
0,047911;0,0205347;-0,659758;0,629504;
0,048011;0,021245;-0,652369;0,622769;
0,048111;0,0217713;-0,641914;0,613011;
0,048211;0,0221141;-0,628446;0,600274;
0,048311;0,0222748;-0,612028;0,584619;
0,048411;0,0222558;-0,59274;0,566121;
0,048511;0,0220604;-0,570674;0,544867;
0,048611;0,0216928;-0,545935;0,520959;
0,048711;0,021158;-0,518644;0,494509;
0,048811;0,0204621;-0,488929;0,465645;
0,048911;0,0196118;-0,456935;0,434502;
