time;V(/VoutN)1;V(/VoutP)1;
0;-0,0099995;-0,0099995;
1e-07;-0,00999903;-0,00999732;
2e-07;-0,00999833;-0,00999325;
4e-07;-0,00999688;-0,00998179;
8e-07;-0,00999669;-0,00994263;
1,6e-06;-0,0100207;-0,00981975;
3,2e-06;-0,0101768;-0,00945254;
6,4e-06;-0,0108125;-0,00839459;
1,28e-05;-0,0127601;-0,0056026;
2,28e-05;-0,0164371;-0,000606272;
3,28e-05;-0,0202638;0,0045397;
4,28e-05;-0,0240926;0,0096876;
5,28e-05;-0,0279207;0,0148346;
6,28e-05;-0,0317478;0,0199806;
7,28e-05;-0,0355739;0,0251251;
8,28e-05;-0,0393986;0,0302681;
9,28e-05;-0,0432219;0,0354093;
0,0001028;-0,0470434;0,0405484;
0,0001128;-0,0508631;0,0456852;
0,0001228;-0,0546807;0,0508194;
0,0001328;-0,058496;0,055951;
0,0001428;-0,0623088;0,0610795;
0,0001528;-0,0661189;0,0662048;
0,0001628;-0,0699262;0,0713266;
0,0001728;-0,0737305;0,0764447;
0,0001828;-0,0775314;0,081559;
0,0001928;-0,081329;0,086669;
0,0002028;-0,0851229;0,0917747;
0,0002128;-0,088913;0,0968758;
0,0002228;-0,092699;0,101972;
0,0002328;-0,0964809;0,107063;
0,0002428;-0,100258;0,112149;
0,0002528;-0,104031;0,117229;
0,0002628;-0,107799;0,122304;
0,0002728;-0,111562;0,127372;
0,0002828;-0,11532;0,132434;
0,0002928;-0,119073;0,13749;
0,0003028;-0,12282;0,142539;
0,0003128;-0,126561;0,147581;
0,0003228;-0,130296;0,152616;
0,0003328;-0,134025;0,157644;
0,0003428;-0,137748;0,162664;
0,0003528;-0,141464;0,167676;
0,0003628;-0,145174;0,17268;
0,0003728;-0,148877;0,177676;
0,0003828;-0,152572;0,182663;
0,0003928;-0,156261;0,187642;
0,0004028;-0,159942;0,192611;
0,0004128;-0,163615;0,197571;
0,0004228;-0,16728;0,202522;
0,0004328;-0,170938;0,207464;
0,0004428;-0,174587;0,212395;
0,0004528;-0,178228;0,217316;
0,0004628;-0,18186;0,222227;
0,0004728;-0,185484;0,227128;
0,0004828;-0,189098;0,232017;
0,0004928;-0,192704;0,236896;
0,0005028;-0,1963;0,241763;
0,0005128;-0,199887;0,246619;
0,0005228;-0,203463;0,251464;
0,0005328;-0,207031;0,256296;
0,0005428;-0,210588;0,261117;
0,0005528;-0,214134;0,265925;
0,0005628;-0,217671;0,27072;
0,0005728;-0,221197;0,275503;
0,0005828;-0,224712;0,280273;
0,0005928;-0,228216;0,28503;
0,0006028;-0,231709;0,289773;
0,0006128;-0,235191;0,294503;
0,0006228;-0,238661;0,299219;
0,0006328;-0,24212;0,303921;
0,0006428;-0,245566;0,308608;
0,0006528;-0,249001;0,313281;
0,0006628;-0,252424;0,31794;
0,0006728;-0,255834;0,322583;
0,0006828;-0,259231;0,327212;
0,0006928;-0,262616;0,331825;
0,0007028;-0,265988;0,336423;
0,0007128;-0,269347;0,341005;
0,0007228;-0,272693;0,345571;
0,0007328;-0,276025;0,350121;
0,0007428;-0,279344;0,354654;
0,0007528;-0,282649;0,359171;
0,0007628;-0,28594;0,363671;
0,0007728;-0,289217;0,368155;
0,0007828;-0,29248;0,372621;
0,0007928;-0,295728;0,37707;
0,0008028;-0,298962;0,381501;
0,0008128;-0,302181;0,385914;
0,0008228;-0,305385;0,39031;
0,0008328;-0,308574;0,394687;
0,0008428;-0,311748;0,399046;
0,0008528;-0,314907;0,403387;
0,0008628;-0,31805;0,407709;
0,0008728;-0,321177;0,412011;
0,0008828;-0,324288;0,416295;
0,0008928;-0,327383;0,420559;
0,0009028;-0,330462;0,424804;
0,0009128;-0,333525;0,429029;
0,0009228;-0,336571;0,433235;
0,0009328;-0,3396;0,43742;
0,0009428;-0,342613;0,441585;
0,0009528;-0,345608;0,445729;
0,0009628;-0,348586;0,449853;
0,0009728;-0,351548;0,453956;
0,0009828;-0,354491;0,458037;
0,0009928;-0,357417;0,462098;
0,0010028;-0,360326;0,466137;
0,0010128;-0,363216;0,470155;
0,0010228;-0,366088;0,474151;
0,0010328;-0,368942;0,478125;
0,0010428;-0,371778;0,482077;
0,0010528;-0,374595;0,486007;
0,0010628;-0,377394;0,489914;
0,0010728;-0,380174;0,493798;
0,0010828;-0,382935;0,49766;
0,0010928;-0,385676;0,501499;
0,0011028;-0,388399;0,505314;
0,0011128;-0,391102;0,509107;
0,0011228;-0,393786;0,512875;
0,0011328;-0,39645;0,51662;
0,0011428;-0,399094;0,520342;
0,0011528;-0,401719;0,524039;
0,0011628;-0,404323;0,527712;
0,0011728;-0,406907;0,531361;
0,0011828;-0,409471;0,534985;
0,0011928;-0,412014;0,538584;
0,0012028;-0,414537;0,542159;
0,0012128;-0,417039;0,545709;
0,0012228;-0,41952;0,549234;
0,0012328;-0,42198;0,552733;
0,0012428;-0,424419;0,556207;
0,0012528;-0,426837;0,559655;
0,0012628;-0,429234;0,563078;
0,0012728;-0,431609;0,566474;
0,0012828;-0,433962;0,569845;
0,0012928;-0,436294;0,573189;
0,0013028;-0,438604;0,576507;
0,0013128;-0,440891;0,579799;
0,0013228;-0,443157;0,583063;
0,0013328;-0,445401;0,586301;
0,0013428;-0,447622;0,589513;
0,0013528;-0,44982;0,592697;
0,0013628;-0,451997;0,595853;
0,0013728;-0,45415;0,598983;
0,0013828;-0,456281;0,602085;
0,0013928;-0,458388;0,605159;
0,0014028;-0,460473;0,608205;
0,0014128;-0,462535;0,611224;
0,0014228;-0,464573;0,614214;
0,0014328;-0,466588;0,617177;
0,0014428;-0,468579;0,620111;
0,0014528;-0,470547;0,623016;
0,0014628;-0,472491;0,625893;
0,0014728;-0,474412;0,628742;
0,0014828;-0,476309;0,631561;
0,0014928;-0,478181;0,634352;
0,0015028;-0,48003;0,637113;
0,0015128;-0,481854;0,639845;
0,0015228;-0,483654;0,642548;
0,0015328;-0,48543;0,645222;
0,0015428;-0,487181;0,647866;
0,0015528;-0,488908;0,65048;
0,0015628;-0,49061;0,653065;
0,0015728;-0,492287;0,655619;
0,0015828;-0,49394;0,658144;
0,0015928;-0,495567;0,660639;
0,0016028;-0,49717;0,663103;
0,0016128;-0,498747;0,665537;
0,0016228;-0,5003;0,667941;
0,0016328;-0,501827;0,670314;
0,0016428;-0,503328;0,672656;
0,0016528;-0,504805;0,674968;
0,0016628;-0,506255;0,677249;
0,0016728;-0,50768;0,679499;
0,0016828;-0,50908;0,681718;
0,0016928;-0,510453;0,683905;
0,0017028;-0,511801;0,686062;
0,0017128;-0,513123;0,688187;
0,0017228;-0,514419;0,690281;
0,0017328;-0,515689;0,692343;
0,0017428;-0,516933;0,694374;
0,0017528;-0,51815;0,696373;
0,0017628;-0,519342;0,69834;
0,0017728;-0,520507;0,700276;
0,0017828;-0,521645;0,702179;
0,0017928;-0,522758;0,70405;
0,0018028;-0,523843;0,70589;
0,0018128;-0,524902;0,707697;
0,0018228;-0,525935;0,709472;
0,0018328;-0,526941;0,711215;
0,0018428;-0,52792;0,712925;
0,0018528;-0,528872;0,714603;
0,0018628;-0,529797;0,716248;
0,0018728;-0,530695;0,717861;
0,0018828;-0,531567;0,719441;
0,0018928;-0,532411;0,720988;
0,0019028;-0,533229;0,722503;
0,0019128;-0,534019;0,723985;
0,0019228;-0,534782;0,725433;
0,0019328;-0,535518;0,726849;
0,0019428;-0,536226;0,728232;
0,0019528;-0,536907;0,729581;
0,0019628;-0,537561;0,730898;
0,0019728;-0,538188;0,732181;
0,0019828;-0,538787;0,733431;
0,0019928;-0,539358;0,734648;
0,0020028;-0,539902;0,735831;
0,0020128;-0,540419;0,736981;
0,0020228;-0,540908;0,738098;
0,0020328;-0,541369;0,739181;
0,0020428;-0,541803;0,74023;
0,0020528;-0,542209;0,741246;
0,0020628;-0,542587;0,742229;
0,0020728;-0,542938;0,743177;
0,0020828;-0,54326;0,744092;
0,0020928;-0,543556;0,744974;
0,0021028;-0,543823;0,745821;
0,0021128;-0,544062;0,746635;
0,0021228;-0,544274;0,747415;
0,0021328;-0,544458;0,748161;
0,0021428;-0,544613;0,748873;
0,0021528;-0,544741;0,749552;
0,0021628;-0,544841;0,750196;
0,0021728;-0,544913;0,750807;
0,0021828;-0,544958;0,751383;
0,0021928;-0,544974;0,751926;
0,0022028;-0,544962;0,752435;
0,0022128;-0,544922;0,752909;
0,0022228;-0,544854;0,75335;
0,0022328;-0,544759;0,753756;
0,0022428;-0,544635;0,754129;
0,0022528;-0,544483;0,754467;
0,0022628;-0,544304;0,754772;
0,0022728;-0,544096;0,755042;
0,0022828;-0,54386;0,755278;
0,0022928;-0,543597;0,755481;
0,0023028;-0,543305;0,755649;
0,0023128;-0,542985;0,755783;
0,0023228;-0,542638;0,755883;
0,0023328;-0,542262;0,755949;
0,0023428;-0,541859;0,755981;
0,0023528;-0,541427;0,755979;
0,0023628;-0,540968;0,755943;
0,0023728;-0,54048;0,755873;
0,0023828;-0,539965;0,755768;
0,0023928;-0,539422;0,75563;
0,0024028;-0,538851;0,755458;
0,0024128;-0,538252;0,755252;
0,0024228;-0,537625;0,755012;
0,0024328;-0,536971;0,754738;
0,0024428;-0,536288;0,75443;
0,0024528;-0,535578;0,754088;
0,0024628;-0,53484;0,753712;
0,0024728;-0,534075;0,753303;
0,0024828;-0,533281;0,752859;
0,0024928;-0,53246;0,752382;
0,0025028;-0,531612;0,751872;
0,0025128;-0,530736;0,751327;
0,0025228;-0,529832;0,750749;
0,0025328;-0,528901;0,750137;
0,0025428;-0,527942;0,749491;
0,0025528;-0,526956;0,748812;
0,0025628;-0,525942;0,7481;
0,0025728;-0,524901;0,747354;
0,0025828;-0,523833;0,746574;
0,0025928;-0,522737;0,745761;
0,0026028;-0,521614;0,744915;
0,0026128;-0,520464;0,744036;
0,0026228;-0,519287;0,743123;
0,0026328;-0,518082;0,742177;
0,0026428;-0,516851;0,741198;
0,0026528;-0,515593;0,740186;
0,0026628;-0,514307;0,739141;
0,0026728;-0,512995;0,738062;
0,0026828;-0,511656;0,736951;
0,0026928;-0,51029;0,735807;
0,0027028;-0,508897;0,734631;
0,0027128;-0,507478;0,733421;
0,0027228;-0,506032;0,732179;
0,0027328;-0,504559;0,730904;
0,0027428;-0,50306;0,729597;
0,0027528;-0,501535;0,728257;
0,0027628;-0,499983;0,726885;
0,0027728;-0,498405;0,725481;
0,0027828;-0,496801;0,724044;
0,0027928;-0,49517;0,722575;
0,0028028;-0,493514;0,721075;
0,0028128;-0,491831;0,719542;
0,0028228;-0,490122;0,717977;
0,0028328;-0,488388;0,71638;
0,0028428;-0,486628;0,714752;
0,0028528;-0,484842;0,713092;
0,0028628;-0,48303;0,7114;
0,0028728;-0,481193;0,709677;
0,0028828;-0,479331;0,707923;
0,0028928;-0,477443;0,706137;
0,0029028;-0,475529;0,70432;
0,0029128;-0,473591;0,702472;
0,0029228;-0,471627;0,700592;
0,0029328;-0,469638;0,698682;
0,0029428;-0,467624;0,696741;
0,0029528;-0,465586;0,69477;
0,0029628;-0,463522;0,692767;
0,0029728;-0,461434;0,690734;
0,0029828;-0,459321;0,688671;
0,0029928;-0,457184;0,686577;
0,0030028;-0,455023;0,684454;
0,0030128;-0,452837;0,6823;
0,0030228;-0,450626;0,680116;
0,0030328;-0,448392;0,677902;
0,0030428;-0,446133;0,675658;
0,0030528;-0,443851;0,673385;
0,0030628;-0,441545;0,671082;
0,0030728;-0,439215;0,66875;
0,0030828;-0,436862;0,666389;
0,0030928;-0,434485;0,663998;
0,0031028;-0,432084;0,661578;
0,0031128;-0,42966;0,659129;
0,0031228;-0,427214;0,656652;
0,0031328;-0,424744;0,654146;
0,0031428;-0,422251;0,651611;
0,0031528;-0,419735;0,649048;
0,0031628;-0,417196;0,646456;
0,0031728;-0,414635;0,643836;
0,0031828;-0,412051;0,641188;
0,0031928;-0,409445;0,638513;
0,0032028;-0,406817;0,635809;
0,0032128;-0,404166;0,633078;
0,0032228;-0,401494;0,630319;
0,0032328;-0,398799;0,627533;
0,0032428;-0,396083;0,62472;
0,0032528;-0,393345;0,62188;
0,0032628;-0,390586;0,619012;
0,0032728;-0,387805;0,616118;
0,0032828;-0,385003;0,613198;
0,0032928;-0,382179;0,61025;
0,0033028;-0,379335;0,607277;
0,0033128;-0,37647;0,604277;
0,0033228;-0,373584;0,601251;
0,0033328;-0,370677;0,598199;
0,0033428;-0,36775;0,595121;
0,0033528;-0,364802;0,592018;
0,0033628;-0,361834;0,588889;
0,0033728;-0,358846;0,585735;
0,0033828;-0,355838;0,582556;
0,0033928;-0,352811;0,579352;
0,0034028;-0,349763;0,576123;
0,0034128;-0,346696;0,572869;
0,0034228;-0,34361;0,569591;
0,0034328;-0,340504;0,566288;
0,0034428;-0,337379;0,562961;
0,0034528;-0,334236;0,559611;
0,0034628;-0,331073;0,556236;
0,0034728;-0,327892;0,552838;
0,0034828;-0,324692;0,549416;
0,0034928;-0,321473;0,54597;
0,0035028;-0,318237;0,542502;
0,0035128;-0,314982;0,539011;
0,0035228;-0,31171;0,535496;
0,0035328;-0,308419;0,531959;
0,0035428;-0,305111;0,5284;
0,0035528;-0,301786;0,524818;
0,0035628;-0,298443;0,521214;
0,0035728;-0,295083;0,517589;
0,0035828;-0,291706;0,513941;
0,0035928;-0,288312;0,510272;
0,0036028;-0,284901;0,506581;
0,0036128;-0,281474;0,502869;
0,0036228;-0,27803;0,499136;
0,0036328;-0,274571;0,495382;
0,0036428;-0,271095;0,491608;
0,0036528;-0,267603;0,487813;
0,0036628;-0,264095;0,483997;
0,0036728;-0,260572;0,480162;
0,0036828;-0,257033;0,476306;
0,0036928;-0,253479;0,472431;
0,0037028;-0,24991;0,468536;
0,0037128;-0,246326;0,464622;
0,0037228;-0,242727;0,460688;
0,0037328;-0,239114;0,456736;
0,0037428;-0,235486;0,452765;
0,0037528;-0,231844;0,448775;
0,0037628;-0,228188;0,444767;
0,0037728;-0,224518;0,44074;
0,0037828;-0,220834;0,436696;
0,0037928;-0,217136;0,432634;
0,0038028;-0,213426;0,428554;
0,0038128;-0,209701;0,424457;
0,0038228;-0,205964;0,420342;
0,0038328;-0,202214;0,41621;
0,0038428;-0,198451;0,412062;
0,0038528;-0,194676;0,407897;
0,0038628;-0,190888;0,403716;
0,0038728;-0,187088;0,399518;
0,0038828;-0,183277;0,395304;
0,0038928;-0,179453;0,391075;
0,0039028;-0,175617;0,38683;
0,0039128;-0,171771;0,382569;
0,0039228;-0,167912;0,378294;
0,0039328;-0,164043;0,374003;
0,0039428;-0,160163;0,369698;
0,0039528;-0,156272;0,365378;
0,0039628;-0,15237;0,361044;
0,0039728;-0,148458;0,356695;
0,0039828;-0,144536;0,352333;
0,0039928;-0,140604;0,347957;
0,0040028;-0,136662;0,343568;
0,0040128;-0,13271;0,339165;
0,0040228;-0,128749;0,334749;
0,0040328;-0,124779;0,33032;
0,0040428;-0,120799;0,325879;
0,0040528;-0,116811;0,321425;
0,0040628;-0,112814;0,316959;
0,0040728;-0,108808;0,312481;
0,0040828;-0,104794;0,307991;
0,0040928;-0,100772;0,30349;
0,0041028;-0,0967413;0,298977;
0,0041128;-0,0927033;0,294453;
0,0041228;-0,0886578;0,289919;
0,0041328;-0,0846048;0,285373;
0,0041428;-0,0805446;0,280818;
0,0041528;-0,0764774;0,276252;
0,0041628;-0,0724033;0,271675;
0,0041728;-0,0683226;0,26709;
0,0041828;-0,0642355;0,262494;
0,0041928;-0,0601421;0,257889;
0,0042028;-0,0560427;0,253275;
0,0042128;-0,0519373;0,248653;
0,0042228;-0,0478263;0,244021;
0,0042328;-0,0437098;0,239381;
0,0042428;-0,0395881;0,234733;
0,0042528;-0,0354612;0,230077;
0,0042628;-0,0313294;0,225413;
0,0042728;-0,0271929;0,220741;
0,0042828;-0,0230519;0,216062;
0,0042928;-0,0189066;0,211376;
0,0043028;-0,0147572;0,206683;
0,0043128;-0,0106038;0,201984;
0,0043228;-0,00644672;0,197278;
0,0043328;-0,0022861;0,192566;
0,0043428;0,00187787;0,187848;
0,0043528;0,00604498;0,183124;
0,0043628;0,010215;0,178395;
0,0043728;0,0143878;0,17366;
0,0043828;0,0185632;0,16892;
0,0043928;0,0227409;0,164176;
0,0044028;0,0269207;0,159427;
0,0044128;0,0311026;0,154673;
0,0044228;0,0352862;0,149915;
0,0044328;0,0394713;0,145154;
0,0044428;0,0436578;0,140389;
0,0044528;0,0478455;0,13562;
0,0044628;0,0520342;0,130848;
0,0044728;0,0562236;0,126073;
0,0044828;0,0604136;0,121296;
0,0044928;0,064604;0,116515;
0,0045028;0,0687945;0,111733;
0,0045128;0,0729851;0,106948;
0,0045228;0,0771754;0,102162;
0,0045328;0,0813653;0,0973738;
0,0045428;0,0855545;0,0925844;
0,0045528;0,089743;0,0877939;
0,0045628;0,0939305;0,0830024;
0,0045728;0,0981167;0,0782102;
0,0045828;0,102302;0,0734176;
0,0045928;0,106485;0,0686248;
0,0046028;0,110666;0,0638319;
0,0046128;0,114846;0,0590393;
0,0046228;0,119023;0,0542472;
0,0046328;0,123198;0,0494557;
0,0046428;0,12737;0,0446652;
0,0046528;0,131539;0,0398759;
0,0046628;0,135706;0,0350879;
0,0046728;0,139869;0,0303015;
0,0046828;0,144029;0,025517;
0,0046928;0,148185;0,0207345;
0,0047028;0,152338;0,0159544;
0,0047128;0,156486;0,0111768;
0,0047228;0,16063;0,00640191;
0,0047328;0,16477;0,00163005;
0,0047428;0,168906;-0,00313859;
0,0047528;0,173036;-0,00790378;
0,0047628;0,177162;-0,0126653;
0,0047728;0,181282;-0,0174229;
0,0047828;0,185398;-0,0221764;
0,0047928;0,189507;-0,0269255;
0,0048028;0,193611;-0,03167;
0,0048128;0,197709;-0,0364097;
0,0048228;0,201801;-0,0411443;
0,0048328;0,205886;-0,0458737;
0,0048428;0,209965;-0,0505976;
0,0048528;0,214037;-0,0553158;
0,0048628;0,218102;-0,060028;
0,0048728;0,22216;-0,064734;
0,0048828;0,226211;-0,0694337;
0,0048928;0,230254;-0,0741267;
0,0049028;0,23429;-0,0788128;
0,0049128;0,238318;-0,0834919;
0,0049228;0,242338;-0,0881637;
0,0049328;0,246349;-0,0928279;
0,0049428;0,250352;-0,0974845;
0,0049528;0,254346;-0,102133;
0,0049628;0,258332;-0,106773;
0,0049728;0,262308;-0,111405;
0,0049828;0,266275;-0,116029;
0,0049928;0,270233;-0,120643;
0,0050028;0,274181;-0,125248;
0,0050128;0,27812;-0,129845;
0,0050228;0,282048;-0,134431;
0,0050328;0,285967;-0,139008;
0,0050428;0,289875;-0,143575;
0,0050528;0,293772;-0,148132;
0,0050628;0,297659;-0,152678;
0,0050728;0,301534;-0,157214;
0,0050828;0,305399;-0,161738;
0,0050928;0,309253;-0,166252;
0,0051028;0,313095;-0,170755;
0,0051128;0,316925;-0,175246;
0,0051228;0,320743;-0,179726;
0,0051328;0,32455;-0,184193;
0,0051428;0,328344;-0,188649;
0,0051528;0,332126;-0,193092;
0,0051628;0,335895;-0,197522;
0,0051728;0,339652;-0,20194;
0,0051828;0,343396;-0,206345;
0,0051928;0,347126;-0,210737;
0,0052028;0,350843;-0,215115;
0,0052128;0,354547;-0,21948;
0,0052228;0,358238;-0,223831;
0,0052328;0,361914;-0,228168;
0,0052428;0,365576;-0,232491;
0,0052528;0,369225;-0,236799;
0,0052628;0,372859;-0,241093;
0,0052728;0,376478;-0,245372;
0,0052828;0,380083;-0,249636;
0,0052928;0,383673;-0,253885;
0,0053028;0,387247;-0,258118;
0,0053128;0,390807;-0,262336;
0,0053228;0,394351;-0,266538;
0,0053328;0,39788;-0,270724;
0,0053428;0,401393;-0,274893;
0,0053528;0,40489;-0,279046;
0,0053628;0,408371;-0,283183;
0,0053728;0,411836;-0,287303;
0,0053828;0,415285;-0,291405;
0,0053928;0,418716;-0,295491;
0,0054028;0,422132;-0,299559;
0,0054128;0,42553;-0,30361;
0,0054228;0,428911;-0,307643;
0,0054328;0,432275;-0,311657;
0,0054428;0,435622;-0,315654;
0,0054528;0,438951;-0,319632;
0,0054628;0,442263;-0,323592;
0,0054728;0,445556;-0,327533;
0,0054828;0,448832;-0,331455;
0,0054928;0,452089;-0,335358;
0,0055028;0,455328;-0,339242;
0,0055128;0,458549;-0,343106;
0,0055228;0,461751;-0,346951;
0,0055328;0,464934;-0,350775;
0,0055428;0,468098;-0,35458;
0,0055528;0,471243;-0,358365;
0,0055628;0,474369;-0,362129;
0,0055728;0,477476;-0,365872;
0,0055828;0,480562;-0,369595;
0,0055928;0,48363;-0,373297;
0,0056028;0,486677;-0,376978;
0,0056128;0,489704;-0,380638;
0,0056228;0,492711;-0,384276;
0,0056328;0,495698;-0,387893;
0,0056428;0,498665;-0,391488;
0,0056528;0,501611;-0,395061;
0,0056628;0,504536;-0,398611;
0,0056728;0,50744;-0,40214;
0,0056828;0,510323;-0,405646;
0,0056928;0,513185;-0,40913;
0,0057028;0,516026;-0,41259;
0,0057128;0,518845;-0,416028;
0,0057228;0,521643;-0,419443;
0,0057328;0,524419;-0,422834;
0,0057428;0,527174;-0,426202;
0,0057528;0,529906;-0,429547;
0,0057628;0,532616;-0,432868;
0,0057728;0,535304;-0,436164;
0,0057828;0,537969;-0,439437;
0,0057928;0,540613;-0,442686;
0,0058028;0,543233;-0,44591;
0,0058128;0,545831;-0,44911;
0,0058228;0,548405;-0,452285;
0,0058328;0,550957;-0,455436;
0,0058428;0,553486;-0,458561;
0,0058528;0,555991;-0,461662;
0,0058628;0,558473;-0,464737;
0,0058728;0,560932;-0,467786;
0,0058828;0,563367;-0,470811;
0,0058928;0,565778;-0,473809;
0,0059028;0,568165;-0,476782;
0,0059128;0,570528;-0,479729;
0,0059228;0,572868;-0,48265;
0,0059328;0,575183;-0,485544;
0,0059428;0,577473;-0,488413;
0,0059528;0,579739;-0,491254;
0,0059628;0,581981;-0,494069;
0,0059728;0,584198;-0,496858;
0,0059828;0,58639;-0,499619;
0,0059928;0,588558;-0,502354;
0,0060028;0,5907;-0,505061;
0,0060128;0,592817;-0,507742;
0,0060228;0,594909;-0,510394;
0,0060328;0,596976;-0,51302;
0,0060428;0,599018;-0,515617;
0,0060528;0,601034;-0,518187;
0,0060628;0,603024;-0,520729;
0,0060728;0,604988;-0,523243;
0,0060828;0,606927;-0,525729;
0,0060928;0,60884;-0,528187;
0,0061028;0,610727;-0,530617;
0,0061128;0,612588;-0,533018;
0,0061228;0,614422;-0,53539;
0,0061328;0,616231;-0,537734;
0,0061428;0,618013;-0,540049;
0,0061528;0,619768;-0,542335;
0,0061628;0,621497;-0,544592;
0,0061728;0,6232;-0,54682;
0,0061828;0,624875;-0,549019;
0,0061928;0,626524;-0,551189;
0,0062028;0,628146;-0,553329;
0,0062128;0,629741;-0,55544;
0,0062228;0,631309;-0,557522;
0,0062328;0,63285;-0,559573;
0,0062428;0,634364;-0,561595;
0,0062528;0,63585;-0,563587;
0,0062628;0,637309;-0,565549;
0,0062728;0,638741;-0,567481;
0,0062828;0,640145;-0,569383;
0,0062928;0,641521;-0,571255;
0,0063028;0,64287;-0,573096;
0,0063128;0,644191;-0,574907;
0,0063228;0,645485;-0,576687;
0,0063328;0,64675;-0,578437;
0,0063428;0,647988;-0,580157;
0,0063528;0,649198;-0,581846;
0,0063628;0,650379;-0,583503;
0,0063728;0,651533;-0,585131;
0,0063828;0,652658;-0,586727;
0,0063928;0,653756;-0,588292;
0,0064028;0,654825;-0,589826;
0,0064128;0,655865;-0,591329;
0,0064228;0,656877;-0,592801;
0,0064328;0,657861;-0,594241;
0,0064428;0,658816;-0,595651;
0,0064528;0,659743;-0,597028;
0,0064628;0,660641;-0,598375;
0,0064728;0,661511;-0,59969;
0,0064828;0,662351;-0,600973;
0,0064928;0,663164;-0,602225;
0,0065028;0,663947;-0,603445;
0,0065128;0,664701;-0,604633;
0,0065228;0,665427;-0,60579;
0,0065328;0,666124;-0,606914;
0,0065428;0,666791;-0,608007;
0,0065528;0,66743;-0,609068;
0,0065628;0,66804;-0,610097;
0,0065728;0,668621;-0,611094;
0,0065828;0,669172;-0,612059;
0,0065928;0,669695;-0,612992;
