time;V(/VoutN)1;V(/VoutP)1;
0;-0,0099995;-0,0099995;
1e-06;-0,00999132;-0,0098459;
2e-06;-0,010021;-0,00960833;
4e-06;-0,0101695;-0,00901795;
8e-06;-0,0108953;-0,00738217;
1,54567e-05;-0,0129927;-0,00360197;
2,58243e-05;-0,0163937;0,00214695;
3,93237e-05;-0,0209281;0,00973168;
6,63227e-05;-0,0299888;0,0248998;
0,000120321;-0,048085;0,0551953;
0,000163119;-0,0623827;0,0791547;
0,000208196;-0,0773839;0,104312;
0,000266503;-0,0966678;0,136706;
0,000332215;-0,1182;0,172956;
0,000432215;-0,150437;0,22746;
0,000532215;-0,181879;0,280956;
0,000632215;-0,212339;0,333222;
0,000732215;-0,241649;0,384035;
0,000832215;-0,269635;0,433183;
0,000932215;-0,296139;0,480459;
0,00103221;-0,321001;0,525667;
0,00113221;-0,344078;0,568617;
0,00123221;-0,365229;0,609136;
0,00133221;-0,384328;0,647054;
0,00143221;-0,401253;0,682221;
0,00153221;-0,415899;0,714493;
0,00163221;-0,428168;0,743745;
0,00173221;-0,437977;0,769862;
0,00183221;-0,44525;0,792746;
0,00193221;-0,449931;0,812311;
0,00203221;-0,451971;0,828491;
0,00213221;-0,451336;0,841229;
0,00223221;-0,448006;0,850493;
0,00233221;-0,441974;0,856257;
0,00243221;-0,433245;0,85852;
0,00253221;-0,421841;0,857289;
0,00263221;-0,407793;0,852595;
0,00273221;-0,39115;0,844477;
0,00283221;-0,371969;0,832997;
0,00293221;-0,350326;0,818225;
0,00303221;-0,326302;0,800255;
0,00313221;-0,299997;0,779186;
0,00323221;-0,271518;0,755138;
0,00333221;-0,240987;0,72824;
0,00343221;-0,208532;0,698638;
0,00353221;-0,174295;0,666486;
0,00363221;-0,138425;0,631952;
0,00373221;-0,101082;0,595213;
0,00383221;-0,0624302;0,556458;
0,00393221;-0,0226452;0,515881;
0,00403221;0,0180956;0,473688;
0,00413221;0,0596046;0,430088;
0,00423221;0,101694;0,3853;
0,00433221;0,144169;0,339542;
0,00443221;0,186835;0,293043;
0,00453221;0,229492;0,246028;
0,00463221;0,271943;0,198728;
0,00473221;0,313987;0,15137;
0,00483221;0,35543;0,104187;
0,00493221;0,396071;0,0574035;
0,00503221;0,435722;0,0112457;
0,00513221;0,47419;-0,0340676;
0,00523221;0,511294;-0,0783188;
0,00533221;0,546851;-0,1213;
0,00543221;0,580693;-0,162808;
0,00553221;0,612651;-0,202648;
0,00563221;0,642571;-0,240633;
0,00573221;0,670302;-0,27659;
0,00583221;0,695708;-0,310351;
0,00593221;0,718658;-0,341764;
0,00603221;0,739037;-0,370685;
0,00613221;0,756735;-0,396987;
0,00623221;0,771661;-0,420553;
0,00633221;0,783731;-0,441282;
0,00643221;0,792876;-0,459085;
0,00653221;0,79904;-0,473893;
0,00663221;0,802181;-0,485645;
0,00673221;0,802269;-0,494301;
0,00683221;0,799288;-0,499834;
0,00693221;0,793238;-0,502234;
0,00703221;0,78413;-0,501505;
0,00713221;0,77199;-0,497669;
0,00723221;0,756859;-0,490762;
0,00733221;0,73879;-0,480836;
0,00743221;0,717849;-0,467957;
0,00753221;0,694117;-0,452208;
0,00763221;0,667685;-0,433684;
0,00773221;0,638659;-0,412497;
0,00783221;0,607155;-0,388767;
0,00793221;0,573299;-0,362634;
0,00803221;0,537232;-0,334243;
0,00813221;0,499101;-0,303755;
0,00823221;0,459063;-0,27134;
0,00833221;0,417284;-0,237178;
0,00843221;0,37394;-0,201457;
0,00853221;0,329209;-0,164374;
0,00863221;0,283281;-0,126132;
0,00873221;0,236347;-0,0869419;
0,00883221;0,188604;-0,0470161;
0,00893221;0,140252;-0,00657428;
0,00903221;0,0914951;0,0341635;
0,00913221;0,0425366;0,0749736;
0,00923221;-0,00641719;0,115633;
0,00933221;-0,0551622;0,155919;
0,00943221;-0,103494;0,195611;
0,00953221;-0,151211;0,234488;
0,00963221;-0,198115;0,272337;
0,00973221;-0,244012;0,308947;
0,00983221;-0,288711;0,344114;
0,00993221;-0,33203;0,377639;
0,0100322;-0,373791;0,409335;
0,0101322;-0,413824;0,439018;
0,0102322;-0,451968;0,466518;
0,0103322;-0,488071;0,491674;
0,0104322;-0,521989;0,514336;
0,0105322;-0,553591;0,534366;
0,0106322;-0,582754;0,551639;
0,0107322;-0,609369;0,566044;
0,0108168;-0,629817;0,575915;
0,0109058;-0,649232;0,583954;
0,0109886;-0,665318;0,589229;
0,011066;-0,678589;0,592206;
0,011166;-0,693179;0,593223;
0,011266;-0,704846;0,591021;
0,011366;-0,713562;0,585582;
0,011466;-0,719312;0,576905;
0,011566;-0,722096;0,565006;
0,011666;-0,721927;0,549913;
0,011766;-0,718832;0,531673;
0,011866;-0,712851;0,510349;
0,011966;-0,704037;0,486016;
0,012066;-0,692458;0,458766;
0,012166;-0,678192;0,428705;
0,012266;-0,661332;0,395954;
0,012366;-0,64198;0,360646;
0,012466;-0,620251;0,322927;
0,012566;-0,59627;0,282957;
0,012666;-0,570173;0,240904;
0,012766;-0,542105;0,19695;
0,012866;-0,512219;0,151284;
0,012966;-0,480677;0,104106;
0,013066;-0,447648;0,0556235;
0,013166;-0,413306;0,0060502;
0,013266;-0,377833;-0,044394;
0,013366;-0,341412;-0,0954836;
0,013466;-0,304235;-0,14699;
0,013566;-0,266491;-0,198681;
0,013666;-0,228375;-0,250324;
0,013766;-0,190082;-0,301684;
0,013866;-0,151805;-0,352528;
0,013966;-0,113738;-0,402624;
0,014066;-0,0760739;-0,451743;
0,014166;-0,0390003;-0,499659;
0,014266;-0,00270308;-0,546151;
0,014366;0,0326377;-0,591005;
0,014466;0,0668463;-0,634013;
0,014566;0,0997546;-0,674975;
0,014666;0,1312;-0,7137;
0,014766;0,161031;-0,750007;
0,014866;0,189099;-0,783724;
0,014966;0,215271;-0,814693;
0,015066;0,239421;-0,842767;
0,015166;0,261433;-0,867811;
0,015266;0,281202;-0,889704;
0,015366;0,298638;-0,908341;
0,015466;0,313659;-0,923629;
0,015566;0,326198;-0,935491;
0,015666;0,3362;-0,943866;
0,015766;0,343622;-0,948708;
0,015866;0,348436;-0,949987;
0,015966;0,350626;-0,947691;
0,016066;0,35019;-0,94182;
0,016166;0,34714;-0,932395;
0,016266;0,341501;-0,919449;
0,016366;0,33331;-0,903034;
0,016466;0,322618;-0,883216;
0,016566;0,30949;-0,860076;
0,016666;0,294002;-0,833712;
0,016766;0,276242;-0,804235;
0,016866;0,25631;-0,771771;
0,016966;0,234317;-0,736458;
0,017066;0,210386;-0,698449;
0,017166;0,184648;-0,657906;
0,017266;0,157244;-0,615007;
0,017366;0,128325;-0,569935;
0,017466;0,0980477;-0,522887;
0,017566;0,0665779;-0,474066;
0,017666;0,0340866;-0,423685;
0,017766;0,000751043;-0,371963;
0,017866;-0,0332474;-0,319124;
0,017966;-0,0677233;-0,265398;
0,018066;-0,102488;-0,211017;
0,018166;-0,137353;-0,156216;
0,018266;-0,172125;-0,101234;
0,018366;-0,206614;-0,0463062;
0,018466;-0,240629;0,00832933;
0,018566;-0,273982;0,0624384;
0,018666;-0,306486;0,115789;
0,018766;-0,337961;0,168154;
0,018866;-0,368228;0,219309;
0,018966;-0,397114;0,26904;
0,019066;-0,424455;0,317136;
0,019166;-0,45009;0,363395;
0,019266;-0,473869;0,407626;
0,019366;-0,49565;0,449647;
0,019466;-0,5153;0,489285;
0,019566;-0,532695;0,526381;
0,0196645;-0,547522;0,560309;
0,0197389;-0,557126;0,584091;
0,0198102;-0,56502;0,605386;
0,0198922;-0,572471;0,628003;
0,0199794;-0,578433;0,649773;
0,0200794;-0,582733;0,671782;
0,0201794;-0,584275;0,69056;
0,0202794;-0,583022;0,706045;
0,0203794;-0,578949;0,718194;
0,0204794;-0,572048;0,726979;
0,0205794;-0,56232;0,732387;
0,0206794;-0,549784;0,73442;
0,0207794;-0,534471;0,7331;
0,0208794;-0,516423;0,728461;
0,0209794;-0,495699;0,720554;
0,0210794;-0,472369;0,709446;
0,0211794;-0,446516;0,695216;
0,0212794;-0,418236;0,677963;
0,0213794;-0,387637;0,657794;
0,0214794;-0,354837;0,634835;
0,0215794;-0,319966;0,60922;
0,0216794;-0,283164;0,5811;
0,0217794;-0,244581;0,550634;
0,0218794;-0,204376;0,517992;
0,0219794;-0,162715;0,483357;
0,0220794;-0,119774;0,446918;
0,0221794;-0,0757335;0,408872;
0,0222794;-0,0307799;0,369425;
0,0223794;0,0148943;0,328788;
0,0224794;0,0610933;0,287177;
0,0225794;0,107618;0,244811;
0,0226794;0,154267;0,201916;
0,0227794;0,200838;0,158714;
0,0228794;0,247128;0,115433;
0,0229794;0,292935;0,0722967;
0,0230794;0,338057;0,0295302;
0,0231794;0,382297;-0,0126454;
0,0232794;0,42546;-0,0540121;
0,0233794;0,467356;-0,0943568;
0,0234794;0,507799;-0,133472;
0,0235794;0,546611;-0,171156;
0,0236794;0,583619;-0,207217;
0,0237794;0,618659;-0,24147;
0,0238794;0,651575;-0,273739;
0,0239794;0,682221;-0,30386;
0,0240794;0,710461;-0,331679;
0,0241794;0,736168;-0,357055;
0,0242794;0,759228;-0,379857;
0,0243794;0,779537;-0,399971;
0,0244794;0,797006;-0,417294;
0,0245794;0,811555;-0,431737;
0,0246794;0,82312;-0,443228;
0,0247794;0,831649;-0,451708;
0,0248794;0,837104;-0,457135;
0,0249794;0,83946;-0,45948;
0,0250794;0,838707;-0,458731;
0,0251794;0,834849;-0,454894;
0,0252794;0,827901;-0,447986;
0,0253794;0,817896;-0,438044;
0,0254794;0,804878;-0,425118;
0,0255794;0,788906;-0,409273;
0,0256794;0,77005;-0,39059;
0,0257794;0,748394;-0,369164;
0,0258794;0,724036;-0,345105;
0,0259794;0,697085;-0,318535;
0,0260794;0,667659;-0,289588;
0,0261794;0,635891;-0,258414;
0,0262794;0,601921;-0,22517;
0,0263794;0,565901;-0,190028;
0,0264794;0,527991;-0,153166;
0,0265794;0,488358;-0,114775;
0,0266794;0,447179;-0,0750496;
0,0267794;0,404634;-0,0341958;
0,0268794;0,360913;0,00757642;
0,0269794;0,316208;0,0500514;
0,0270794;0,270714;0,0930095;
0,0271794;0,224632;0,136228;
0,0272794;0,178164;0,179481;
0,0273794;0,131511;0,222545;
0,0274794;0,0848777;0,265192;
0,0275794;0,038465;0,3072;
0,0276794;-0,00752625;0,348346;
0,0277794;-0,0528984;0,388411;
0,0278794;-0,0974573;0,427183;
0,0279794;-0,141013;0,464452;
0,0280794;-0,183382;0,500018;
0,0281794;-0,224385;0,533685;
0,0282794;-0,263852;0,56527;
0,0283794;-0,30162;0,594594;
0,0284794;-0,337533;0,621494;
0,0285794;-0,371447;0,645814;
0,0286794;-0,403226;0,667411;
0,0287794;-0,432745;0,686155;
0,0288794;-0,459892;0,701929;
0,0289794;-0,484563;0,714631;
0,0290794;-0,50667;0,724171;
0,0291794;-0,526136;0,730476;
0,0292794;-0,542895;0,733486;
0,0293794;-0,556897;0,73316;
0,0294794;-0,568104;0,729468;
0,0295794;-0,576491;0,722399;
0,0296794;-0,582049;0,711958;
0,0297794;-0,58478;0,698165;
0,0298794;-0,5847;0,681057;
0,0299794;-0,581841;0,660684;
0,0300794;-0,576244;0,637116;
0,0301794;-0,567968;0,610433;
0,0302794;-0,55708;0,580736;
0,0303794;-0,543663;0,548134;
0,0304794;-0,52781;0,512755;
0,0305617;-0,513002;0,481637;
0,0306512;-0,495199;0,445902;
0,0307364;-0,476658;0,410096;
0,0308224;-0,456457;0,372309;
0,0309005;-0,436908;0,336685;
0,0309852;-0,414477;0,296712;
0,0310852;-0,38649;0,247919;
0,0311852;-0,357022;0,197579;
0,0312852;-0,326241;0,145902;
0,0313852;-0,294322;0,0931099;
0,0314852;-0,261444;0,0394259;
0,0315852;-0,227792;-0,0149199;
0,0316852;-0,193552;-0,0696946;
0,0317852;-0,158913;-0,124662;
0,0318852;-0,124067;-0,179586;
0,0319852;-0,0892053;-0,234229;
0,0320852;-0,054518;-0,288354;
0,0321852;-0,0201951;-0,341726;
0,0322852;0,0135765;-0,394115;
0,0323852;0,0466126;-0,445292;
0,0324852;0,0787334;-0,495036;
0,0325852;0,109764;-0,54313;
0,0326852;0,139536;-0,589366;
0,0327852;0,167886;-0,633543;
0,0328852;0,19466;-0,675469;
0,0329852;0,219711;-0,714962;
0,0330852;0,242902;-0,751853;
0,0331852;0,264105;-0,785983;
0,0332852;0,283202;-0,817204;
0,0333852;0,300086;-0,845384;
0,0334852;0,314662;-0,870402;
0,0335852;0,326845;-0,892154;
0,0336852;0,336566;-0,910548;
0,0337852;0,343764;-0,92551;
0,0338852;0,348394;-0,936978;
0,0339852;0,350423;-0,94491;
0,0340852;0,349832;-0,949277;
0,0341852;0,346615;-0,950067;
0,0342852;0,340779;-0,947285;
0,0343852;0,332345;-0,94095;
0,0344852;0,321347;-0,931099;
0,0345852;0,307832;-0,917784;
0,0346852;0,29186;-0,901074;
0,0347852;0,273505;-0,881051;
0,0348852;0,252851;-0,857813;
0,0349852;0,229996;-0,831474;
0,0350852;0,205047;-0,802159;
0,0351852;0,178126;-0,770009;
0,0352852;0,14936;-0,735174;
0,0353852;0,118891;-0,69782;
0,0354852;0,0868654;-0,658122;
0,0355852;0,0534418;-0,616265;
0,0356852;0,0187842;-0,572444;
0,0357852;-0,016936;-0,526863;
0,0358852;-0,0535415;-0,479732;
0,0359852;-0,0908496;-0,431269;
0,0360852;-0,128674;-0,381696;
0,0361852;-0,166824;-0,331241;
0,0362852;-0,205107;-0,280134;
0,0363852;-0,243329;-0,228608;
0,0364852;-0,281296;-0,176897;
0,0365852;-0,318814;-0,125235;
0,0366852;-0,355689;-0,0738542;
0,0367852;-0,391731;-0,0229862;
0,0368852;-0,426751;0,0271418;
0,0369852;-0,460568;0,0763066;
0,0370852;-0,493002;0,124291;
0,0371852;-0,523881;0,170882;
0,0372852;-0,553038;0,215878;
0,0373852;-0,580316;0,259081;
0,0374852;-0,605564;0,300307;
0,0375852;-0,62864;0,339378;
0,0376852;-0,649415;0,376129;
0,0377852;-0,667766;0,410406;
0,0378852;-0,683583;0,442069;
0,0379852;-0,696767;0,47099;
0,0380852;-0,707233;0,497053;
0,0381852;-0,714905;0,52016;
0,0382852;-0,719723;0,540223;
0,0383852;-0,721638;0,557174;
0,0384852;-0,720615;0,570956;
0,0385852;-0,716632;0,58153;
0,0386852;-0,709683;0,588872;
0,0387852;-0,699773;0,592974;
0,0388852;-0,686922;0,593844;
0,0389852;-0,671164;0,591506;
0,0390852;-0,652546;0,585999;
0,0391852;-0,631128;0,577377;
0,0392852;-0,606984;0,565711;
0,0393852;-0,580201;0,551085;
0,0394852;-0,550876;0,533598;
0,0395852;-0,519122;0,513362;
0,0396852;-0,48506;0,490504;
0,0397658;-0,456029;0,470276;
0,039848;-0,425034;0,448058;
0,0399204;-0,396612;0,427211;
0,040001;-0,363905;0,402742;
0,040101;-0,321786;0,370599;
0,040201;-0,278148;0,336669;
0,040301;-0,23317;0,301142;
0,040401;-0,187037;0,26422;
0,040501;-0,139941;0,226106;
0,040601;-0,0920748;0,187014;
0,040701;-0,0436396;0,147159;
0,040801;0,00516309;0,106759;
0,040901;0,054129;0,0660384;
0,041001;0,103053;0,0252187;
0,041101;0,15173;-0,0154763;
0,041201;0,199956;-0,0558243;
0,041301;0,247528;-0,0956047;
0,041401;0,294246;-0,1346;
0,041501;0,339915;-0,172597;
0,041601;0,384344;-0,209388;
0,041701;0,427346;-0,24477;
0,041801;0,468741;-0,278548;
0,041901;0,508359;-0,310537;
0,042001;0,546033;-0,340559;
0,042101;0,581609;-0,368445;
0,042201;0,614941;-0,394039;
0,042301;0,645893;-0,417196;
0,042401;0,674339;-0,437782;
0,042501;0,700165;-0,455677;
0,042601;0,723271;-0,470774;
0,042701;0,743565;-0,48298;
0,042801;0,760972;-0,492217;
0,042901;0,775427;-0,498422;
0,043001;0,78688;-0,501547;
0,043101;0,795295;-0,501558;
0,043201;0,800647;-0,498439;
0,043301;0,802928;-0,492187;
0,043401;0,802143;-0,482818;
0,043501;0,798309;-0,470362;
0,043601;0,79146;-0,454863;
0,043701;0,781641;-0,436383;
0,043801;0,76891;-0,414998;
0,043901;0,753342;-0,390799;
0,044001;0,735019;-0,36389;
0,044101;0,714039;-0,334391;
0,044201;0,690512;-0,302433;
0,044301;0,664557;-0,268162;
0,044401;0,636305;-0,231734;
0,044501;0,605897;-0,193316;
0,044601;0,573484;-0,153088;
0,044701;0,539224;-0,111238;
0,044801;0,503284;-0,0679607;
0,044901;0,465839;-0,0234618;
0,045001;0,427068;0,0220478;
0,045101;0,387157;0,0683513;
0,045201;0,346296;0,115227;
0,045301;0,304679;0,16245;
0,045401;0,262502;0,209793;
0,045501;0,219963;0,257025;
0,045601;0,177262;0,303918;
0,045701;0,134596;0,350242;
0,045801;0,0921645;0,39577;
0,045901;0,0501621;0,440277;
0,046001;0,00878177;0,483544;
0,046101;-0,0317877;0,525354;
0,046201;-0,0713621;0,5655;
0,046301;-0,109763;0,603777;
0,046401;-0,146819;0,639993;
0,046501;-0,182364;0,673962;
0,046601;-0,216243;0,705509;
0,046701;-0,248308;0,734469;
0,046801;-0,278419;0,760689;
0,046901;-0,306449;0,784029;
0,047001;-0,332281;0,80436;
0,047101;-0,355807;0,821569;
0,047201;-0,376934;0,835555;
0,047301;-0,39558;0,846233;
0,047401;-0,411674;0,853533;
0,047501;-0,42516;0,8574;
0,047601;-0,435994;0,857795;
0,047701;-0,444146;0,854693;
0,047801;-0,449599;0,848089;
0,047901;-0,452349;0,837992;
0,048001;-0,452407;0,824425;
0,048101;-0,449796;0,80743;
0,048201;-0,444552;0,787065;
0,048301;-0,436727;0,7634;
0,048401;-0,426381;0,736525;
0,048501;-0,413592;0,706541;
0,048601;-0,398446;0,673565;
0,048701;-0,381041;0,637728;
0,048801;-0,361489;0,599174;
0,048901;-0,339911;0,55806;
0,049001;-0,316436;0,514554;
0,049101;-0,291206;0,468836;
0,049201;-0,264369;0,421096;
0,049301;-0,236082;0,371532;
0,049401;-0,206509;0,320353;
0,049501;-0,17582;0,267773;
0,049601;-0,144192;0,214016;
0,049701;-0,111804;0,159307;
0,049801;-0,0788417;0,103878;
0,049901;-0,0454911;0,0479655;
0,050001;-0,0119414;-0,0081946;
0,050101;0,0216174;-0,0643635;
0,0501973;0,0537648;-0,118238;
0,0502504;0,071348;-0,14776;
0,0503041;0,0890328;-0,177508;
0,0503618;0,107825;-0,209196;
0,0504618;0,139845;-0,263424;
0,0505618;0,171015;-0,316581;
0,0506618;0,201152;-0,368437;
0,0507618;0,230088;-0,41878;
0,0508618;0,257651;-0,467393;
0,0509618;0,283684;-0,514077;
0,0510618;0,308032;-0,558635;
0,0511618;0,330553;-0,600883;
0,0512618;0,351109;-0,640648;
0,0513618;0,369575;-0,677767;
0,0514618;0,385836;-0,71209;
0,0515618;0,399787;-0,74348;
0,0516618;0,411335;-0,771814;
0,0517618;0,4204;-0,796983;
0,0518618;0,426911;-0,818891;
0,0519618;0,430814;-0,83746;
0,0520618;0,432064;-0,852624;
0,0521618;0,430632;-0,864337;
0,0522618;0,426501;-0,872565;
0,0523618;0,419669;-0,877292;
0,0524618;0,410145;-0,878517;
0,0525618;0,397953;-0,876257;
0,0526618;0,383131;-0,870543;
0,0527618;0,365729;-0,861422;
0,0528618;0,345811;-0,848958;
0,0529618;0,323452;-0,833229;
0,0530618;0,298742;-0,814329;
0,0531618;0,271781;-0,792365;
0,0532618;0,242682;-0,767458;
0,0533618;0,211566;-0,739744;
0,0534618;0,178568;-0,709369;
0,0535618;0,143831;-0,676493;
0,0536618;0,107508;-0,641287;
0,0537618;0,0697593;-0,603931;
0,0538618;0,0307535;-0,564615;
0,0539618;-0,00933398;-0,523538;
0,0540618;-0,0503216;-0,480906;
0,0541618;-0,0920229;-0,436931;
0,0542618;-0,134247;-0,391832;
0,0543618;-0,176799;-0,345831;
0,0544618;-0,219483;-0,299155;
0,0545618;-0,2621;-0,252031;
0,0546618;-0,304451;-0,20469;
0,0547618;-0,346337;-0,157361;
0,0548618;-0,387563;-0,110272;
0,0549618;-0,427931;-0,0636511;
0,0550618;-0,46725;-0,0177206;
0,0551618;-0,505333;0,0273001;
0,0552618;-0,541997;0,0711968;
0,0553618;-0,577064;0,113762;
0,0554618;-0,610364;0,154796;
0,0555618;-0,641735;0,194105;
0,0556618;-0,671021;0,231508;
0,0557618;-0,698078;0,26683;
0,0558618;-0,722769;0,299911;
0,0559618;-0,744969;0,3306;
0,0560618;-0,764563;0,358758;
0,0561618;-0,78145;0,384261;
0,0562618;-0,795537;0,406996;
0,0563618;-0,806747;0,426866;
0,0564618;-0,815015;0,443789;
0,0565618;-0,820287;0,457696;
0,0566618;-0,822525;0,468535;
0,0567618;-0,821705;0,476268;
0,0568618;-0,817814;0,480873;
0,0569618;-0,810856;0,482344;
0,0570618;-0,800846;0,480692;
0,0571618;-0,787816;0,475942;
0,0572618;-0,771808;0,468134;
0,0573618;-0,75288;0,457325;
0,0574618;-0,731103;0,443587;
0,0575618;-0,706561;0,427005;
0,0576618;-0,679349;0,40768;
0,0577618;-0,649576;0,385726;
0,0578618;-0,617362;0,361269;
0,0579618;-0,582836;0,334451;
0,0580618;-0,546141;0,305422;
0,0581618;-0,507428;0,274345;
0,0582618;-0,466857;0,241393;
0,0583618;-0,424596;0,206749;
0,0584618;-0,380822;0,170604;
0,0585618;-0,335717;0,133156;
0,0586618;-0,28947;0,0946108;
0,0587618;-0,242275;0,0551798;
0,0588618;-0,194331;0,0150784;
0,0589618;-0,145838;-0,0254744;
0,0590618;-0,0969996;-0,0662568;
0,0591618;-0,0480212;-0,107046;
0,0592618;0,000892175;-0,147618;
0,0593618;0,0495358;-0,187751;
0,0594618;0,0977064;-0,227223;
0,0595618;0,145203;-0,265818;
0,0596618;0,191829;-0,303322;
0,0597618;0,23739;-0,339525;
0,0598618;0,2817;-0,374226;
0,0599618;0,324575;-0,407229;
0,0600618;0,365841;-0,438346;
0,0601618;0,405331;-0,4674;
0,0602618;0,442885;-0,494222;
0,0603618;0,478355;-0,518654;
0,0604618;0,5116;-0,54055;
0,0605618;0,542492;-0,559776;
0,0606618;0,570911;-0,57621;
0,0607618;0,596752;-0,589745;
0,06083;0,612842;-0,597263;
0,0608863;0,625173;-0,602403;
0,0609293;0,634003;-0,605671;
0,0609741;0,642639;-0,608459;
0,0610149;0,65003;-0,610455;
0,0610967;0,663376;-0,612857;
0,0611967;0,677073;-0,61289;
0,0612967;0,687837;-0,609695;
0,0613967;0,695643;-0,603262;
0,0614967;0,700483;-0,593594;
0,0615967;0,702358;-0,58071;
0,0616967;0,701288;-0,564646;
0,0617967;0,697302;-0,545453;
0,0618967;0,690445;-0,523196;
0,0619967;0,680776;-0,497957;
0,0620967;0,668363;-0,469833;
0,0621967;0,653291;-0,438933;
0,0622967;0,635654;-0,405383;
0,0623967;0,61556;-0,369319;
0,0624967;0,593126;-0,330892;
0,0625967;0,568481;-0,290263;
0,0626967;0,541763;-0,247607;
0,0627967;0,51312;-0,203107;
0,0628967;0,482709;-0,156956;
0,0629967;0,450692;-0,109355;
0,0630967;0,417241;-0,0605148;
0,0631967;0,382532;-0,0106505;
0,0632967;0,346749;0,0400158;
0,0633967;0,310076;0,0912579;
0,0634967;0,272704;0,142846;
0,0635967;0,234825;0,194547;
0,0636967;0,196634;0,246128;
0,0637967;0,158325;0,297355;
0,0638967;0,120092;0,347994;
0,0639967;0,0821288;0,397814;
0,0640967;0,0446258;0,446587;
0,0641967;0,00777099;0,494089;
0,0642967;-0,0282517;0,540102;
0,0643967;-0,0632633;0,584411;
0,0644967;-0,0970906;0,626812;
0,0645967;-0,129567;0,667107;
0,0646967;-0,160533;0,705109;
0,0647967;-0,189837;0,740638;
0,0648967;-0,217338;0,773529;
