time;V(/VoutN)1;V(/VoutP)1;V(/BiasOut)1;a
0;-0,0109874;-0,0109874;-0,00102348;
1,00E-07;-0,0109888;-0,0109871;-0,00102347;
2,00E-07;-0,0109916;-0,0109866;-0,00102347;
4,00E-07;-0,0109997;-0,0109846;-0,00102347;
8,00E-07;-0,0110284;-0,0109744;-0,00102346;
1,60E-06;-0,0111251;-0,0109241;-0,00102334;
3,20E-06;-0,0114359;-0,0107117;-0,00102262;
6,40E-06;-0,0123791;-0,00996113;-0,00101907;
1,28E-05;-0,0149336;-0,00777611;-0,00100387;
2,28E-05;-0,0195392;-0,00370843;-0,000959785;
3,28E-05;-0,0242724;0,000531146;-0,000892816;
4,28E-05;-0,0289873;0,00479285;-0,000805108;
5,28E-05;-0,0336832;0,00907208;-0,000698602;
6,28E-05;-0,0383615;0,0133669;-0,000575064;
7,28E-05;-0,0430236;0,0176755;-0,000436092;
8,28E-05;-0,0476705;0,0219963;-0,000283139;
9,28E-05;-0,0523033;0,0263278;-0,000117522;
0,0001028;-0,056923;0,0306688;5,96E-05;
0,0001128;-0,0615305;0,0350178;0,000247033;
0,0001228;-0,0661263;0,0393738;0,0004439;
0,0001328;-0,0707112;0,0437358;0,000649272;
0,0001428;-0,0752857;0,0481026;0,000862336;
0,0001528;-0,0798502;0,0524735;0,00108236;
0,0001628;-0,0844053;0,0568475;0,00130866;
0,0001728;-0,0889513;0,0612239;0,00154064;
0,0001828;-0,0934885;0,0656019;0,00177775;
0,0001928;-0,0980171;0,0699809;0,00201947;
0,0002028;-0,102537;0,0743602;0,00226536;
0,0002128;-0,107049;0,0787393;0,002515;
0,0002228;-0,111554;0,0831175;0,00276802;
0,0002328;-0,11605;0,0874943;0,00302406;
0,0002428;-0,120538;0,0918692;0,00328281;
0,0002528;-0,125018;0,0962418;0,00354399;
0,0002628;-0,129491;0,100612;0,00380735;
0,0002728;-0,133956;0,104978;0,00407263;
0,0002828;-0,138413;0,109341;0,00433964;
0,0002928;-0,142863;0,1137;0,00460816;
0,0003028;-0,147304;0,118054;0,00487802;
0,0003128;-0,151738;0,122404;0,00514906;
0,0003228;-0,156163;0,126749;0,00542113;
0,0003328;-0,160581;0,131088;0,00569408;
0,0003428;-0,16499;0,135422;0,00596779;
0,0003528;-0,169391;0,139749;0,00624215;
0,0003628;-0,173783;0,144071;0,00651705;
0,0003728;-0,178167;0,148385;0,0067924;
0,0003828;-0,182542;0,152693;0,00706809;
0,0003928;-0,186909;0,156994;0,00734406;
0,0004028;-0,191266;0,161287;0,00762022;
0,0004128;-0,195614;0,165572;0,00789651;
0,0004228;-0,199953;0,16985;0,00817286;
0,0004328;-0,204283;0,174119;0,0084492;
0,0004428;-0,208602;0,17838;0,00872549;
0,0004528;-0,212912;0,182632;0,00900167;
0,0004628;-0,217212;0,186875;0,0092777;
0,0004728;-0,221502;0,191109;0,00955352;
0,0004828;-0,225782;0,195334;0,00982911;
0,0004928;-0,230051;0,199549;0,0101044;
0,0005028;-0,234309;0,203754;0,0103794;
0,0005128;-0,238556;0,20795;0,010654;
0,0005228;-0,242793;0,212134;0,0109282;
0,0005328;-0,247018;0,216309;0,0112021;
0,0005428;-0,251232;0,220473;0,0114754;
0,0005528;-0,255434;0,224626;0,0117483;
0,0005628;-0,259624;0,228767;0,0120207;
0,0005728;-0,263802;0,232898;0,0122926;
0,0005828;-0,267969;0,237016;0,0125639;
0,0005928;-0,272122;0,241124;0,0128347;
0,0006028;-0,276263;0,245219;0,0131048;
0,0006128;-0,280392;0,249302;0,0133744;
0,0006228;-0,284507;0,253372;0,0136432;
0,0006328;-0,28861;0,25743;0,0139115;
0,0006428;-0,292699;0,261476;0,014179;
0,0006528;-0,296774;0,265508;0,0144459;
0,0006628;-0,300836;0,269527;0,0147121;
0,0006728;-0,304884;0,273533;0,0149775;
0,0006828;-0,308918;0,277525;0,0152422;
0,0006928;-0,312937;0,281504;0,0155061;
0,0007028;-0,316942;0,285468;0,0157692;
0,0007128;-0,320933;0,289419;0,0160315;
0,0007228;-0,324909;0,293355;0,0162931;
0,0007328;-0,328869;0,297277;0,0165538;
0,0007428;-0,332815;0,301184;0,0168136;
0,0007528;-0,336744;0,305076;0,0170726;
0,0007628;-0,340659;0,308953;0,0173308;
0,0007728;-0,344557;0,312815;0,017588;
0,0007828;-0,34844;0,316661;0,0178443;
0,0007928;-0,352307;0,320491;0,0180998;
0,0008028;-0,356157;0,324306;0,0183543;
0,0008128;-0,359991;0,328105;0,0186078;
0,0008228;-0,363808;0,331888;0,0188604;
0,0008328;-0,367608;0,335654;0,019112;
0,0008428;-0,371391;0,339404;0,0193627;
0,0008528;-0,375157;0,343137;0,0196124;
0,0008628;-0,378905;0,346853;0,019861;
0,0008728;-0,382636;0,350552;0,0201086;
0,0008828;-0,386349;0,354234;0,0203552;
0,0008928;-0,390044;0,357898;0,0206008;
0,0009028;-0,393721;0,361545;0,0208453;
0,0009128;-0,39738;0,365174;0,0210887;
0,0009228;-0,40102;0,368785;0,021331;
0,0009328;-0,404642;0,372378;0,0215723;
0,0009428;-0,408245;0,375952;0,0218124;
0,0009528;-0,411829;0,379509;0,0220514;
0,0009628;-0,415393;0,383046;0,0222893;
0,0009728;-0,418939;0,386565;0,022526;
0,0009828;-0,422464;0,390064;0,0227616;
0,0009928;-0,425971;0,393545;0,022996;
0,0010028;-0,429457;0,397006;0,0232293;
0,0010128;-0,432923;0,400448;0,0234613;
0,0010228;-0,436369;0,40387;0,0236921;
0,0010328;-0,439795;0,407272;0,0239218;
0,0010428;-0,443201;0,410654;0,0241502;
0,0010528;-0,446585;0,414017;0,0243773;
0,0010628;-0,449949;0,417358;0,0246032;
0,0010728;-0,453292;0,42068;0,0248279;
0,0010828;-0,456614;0,423981;0,0250513;
0,0010928;-0,459914;0,427261;0,0252734;
0,0011028;-0,463193;0,43052;0,0254942;
0,0011128;-0,466451;0,433758;0,0257137;
0,0011228;-0,469687;0,436975;0,0259319;
0,0011328;-0,4729;0,44017;0,0261488;
0,0011428;-0,476092;0,443344;0,0263643;
0,0011528;-0,479261;0,446496;0,0265785;
0,0011628;-0,482408;0,449626;0,0267913;
0,0011728;-0,485533;0,452735;0,0270027;
0,0011828;-0,488635;0,455821;0,0272128;
0,0011928;-0,491714;0,458885;0,0274215;
0,0012028;-0,49477;0,461926;0,0276288;
0,0012128;-0,497803;0,464945;0,0278347;
0,0012228;-0,500812;0,467941;0,0280391;
0,0012328;-0,503799;0,470915;0,0282421;
0,0012428;-0,506761;0,473865;0,0284437;
0,0012528;-0,5097;0,476792;0,0286439;
0,0012628;-0,512616;0,479696;0,0288425;
0,0012728;-0,515507;0,482576;0,0290397;
0,0012828;-0,518374;0,485433;0,0292355;
0,0012928;-0,521217;0,488266;0,0294297;
0,0013028;-0,524035;0,491076;0,0296224;
0,0013128;-0,526829;0,493861;0,0298137;
0,0013228;-0,529599;0,496622;0,0300034;
0,0013328;-0,532343;0,499359;0,0301916;
0,0013428;-0,535063;0,502072;0,0303782;
0,0013528;-0,537757;0,50476;0,0305633;
0,0013628;-0,540427;0,507423;0,0307468;
0,0013728;-0,543071;0,510062;0,0309288;
0,0013828;-0,545689;0,512676;0,0311092;
0,0013928;-0,548283;0,515265;0,031288;
0,0014028;-0,55085;0,517828;0,0314653;
0,0014128;-0,553392;0,520367;0,0316409;
0,0014228;-0,555907;0,52288;0,0318149;
0,0014328;-0,558397;0,525367;0,0319873;
0,0014428;-0,560861;0,527829;0,0321581;
0,0014528;-0,563298;0,530266;0,0323272;
0,0014628;-0,565709;0,532676;0,0324947;
0,0014728;-0,568093;0,53506;0,0326606;
0,0014828;-0,570451;0,537419;0,0328248;
0,0014928;-0,572782;0,539751;0,0329873;
0,0015028;-0,575086;0,542057;0,0331481;
0,0015128;-0,577363;0,544336;0,0333073;
0,0015228;-0,579613;0,546589;0,0334647;
0,0015328;-0,581836;0,548816;0,0336205;
0,0015428;-0,584032;0,551015;0,0337745;
0,0015528;-0,5862;0,553188;0,0339269;
0,0015628;-0,588341;0,555334;0,0340775;
0,0015728;-0,590454;0,557453;0,0342264;
0,0015828;-0,59254;0,559544;0,0343735;
0,0015928;-0,594598;0,561609;0,0345189;
0,0016028;-0,596627;0,563646;0,0346626;
0,0016128;-0,598629;0,565655;0,0348045;
0,0016228;-0,600603;0,567637;0,0349446;
0,0016328;-0,602549;0,569592;0,0350829;
0,0016428;-0,604466;0,571519;0,0352195;
0,0016528;-0,606355;0,573417;0,0353543;
0,0016628;-0,608216;0,575288;0,0354872;
0,0016728;-0,610048;0,577131;0,0356184;
0,0016828;-0,611851;0,578946;0,0357478;
0,0016928;-0,613626;0,580733;0,0358753;
0,0017028;-0,615371;0,582492;0,0360011;
0,0017128;-0,617088;0,584222;0,036125;
0,0017228;-0,618776;0,585923;0,0362471;
0,0017328;-0,620435;0,587597;0,0363673;
0,0017428;-0,622065;0,589241;0,0364857;
0,0017528;-0,623666;0,590857;0,0366022;
0,0017628;-0,625237;0,592445;0,0367169;
0,0017728;-0,626779;0,594003;0,0368297;
0,0017828;-0,628292;0,595533;0,0369406;
0,0017928;-0,629775;0,597033;0,0370497;
0,0018028;-0,631229;0,598505;0,0371569;
0,0018128;-0,632652;0,599947;0,0372622;
0,0018228;-0,634047;0,60136;0,0373656;
0,0018328;-0,635411;0,602744;0,0374671;
0,0018428;-0,636746;0,604099;0,0375667;
0,0018528;-0,63805;0,605424;0,0376644;
0,0018628;-0,639325;0,60672;0,0377602;
0,0018728;-0,64057;0,607987;0,0378541;
0,0018828;-0,641784;0,609224;0,037946;
0,0018928;-0,642969;0,610431;0,0380361;
0,0019028;-0,644123;0,611608;0,0381242;
0,0019128;-0,645247;0,612756;0,0382103;
0,0019228;-0,646341;0,613874;0,0382945;
0,0019328;-0,647404;0,614963;0,0383768;
0,0019428;-0,648437;0,616021;0,0384572;
0,0019528;-0,649439;0,617049;0,0385355;
0,0019628;-0,650411;0,618048;0,0386119;
0,0019728;-0,651353;0,619016;0,0386864;
0,0019828;-0,652263;0,619954;0,0387589;
0,0019928;-0,653144;0,620862;0,0388294;
0,0020028;-0,653993;0,62174;0,038898;
0,0020128;-0,654812;0,622588;0,0389645;
0,0020228;-0,6556;0,623406;0,0390291;
0,0020328;-0,656357;0,624193;0,0390917;
0,0020428;-0,657083;0,62495;0,0391524;
0,0020528;-0,657779;0,625676;0,039211;
0,0020628;-0,658443;0,626372;0,0392677;
0,0020728;-0,659077;0,627038;0,0393223;
0,0020828;-0,659679;0,627673;0,039375;
0,0020928;-0,660251;0,628278;0,0394256;
0,0021028;-0,660792;0,628852;0,0394743;
0,0021128;-0,661301;0,629396;0,0395209;
0,0021228;-0,66178;0,629909;0,0395655;
0,0021328;-0,662227;0,630391;0,0396081;
0,0021428;-0,662643;0,630843;0,0396488;
0,0021528;-0,663028;0,631264;0,0396873;
0,0021628;-0,663382;0,631655;0,0397239;
0,0021728;-0,663705;0,632015;0,0397585;
0,0021828;-0,663997;0,632344;0,039791;
0,0021928;-0,664257;0,632642;0,0398215;
0,0022028;-0,664486;0,63291;0,03985;
0,0022128;-0,664684;0,633147;0,0398764;
0,0022228;-0,664851;0,633353;0,0399009;
0,0022328;-0,664987;0,633529;0,0399232;
0,0022428;-0,665091;0,633673;0,0399436;
0,0022528;-0,665164;0,633787;0,0399619;
0,0022628;-0,665205;0,63387;0,0399782;
0,0022728;-0,665216;0,633922;0,0399925;
0,0022828;-0,665195;0,633944;0,0400047;
0,0022928;-0,665143;0,633934;0,0400149;
0,0023028;-0,66506;0,633894;0,040023;
0,0023128;-0,664945;0,633823;0,0400291;
0,0023228;-0,664799;0,633722;0,0400332;
0,0023328;-0,664622;0,633589;0,0400352;
0,0023428;-0,664414;0,633426;0,0400352;
0,0023528;-0,664174;0,633232;0,0400332;
0,0023628;-0,663903;0,633007;0,0400291;
0,0023728;-0,663601;0,632752;0,0400229;
0,0023828;-0,663268;0,632465;0,0400148;
0,0023928;-0,662904;0,632148;0,0400046;
0,0024028;-0,662508;0,631801;0,0399923;
0,0024128;-0,662082;0,631422;0,039978;
0,0024228;-0,661624;0,631013;0,0399617;
0,0024328;-0,661135;0,630573;0,0399433;
0,0024428;-0,660615;0,630103;0,0399229;
0,0024528;-0,660064;0,629602;0,0399004;
0,0024628;-0,659482;0,62907;0,0398759;
0,0024728;-0,658869;0,628508;0,0398494;
0,0024828;-0,658225;0,627916;0,0398208;
0,0024928;-0,65755;0,627292;0,0397902;
0,0025028;-0,656845;0,626639;0,0397576;
0,0025128;-0,656108;0,625955;0,039723;
0,0025228;-0,655341;0,62524;0,0396863;
0,0025328;-0,654542;0,624495;0,0396475;
0,0025428;-0,653713;0,62372;0,0396068;
0,0025528;-0,652854;0,622914;0,039564;
0,0025628;-0,651963;0,622078;0,0395192;
0,0025728;-0,651042;0,621212;0,0394724;
0,0025828;-0,650091;0,620316;0,0394236;
0,0025928;-0,649109;0,61939;0,0393727;
0,0026028;-0,648096;0,618433;0,0393198;
0,0026128;-0,647053;0,617447;0,0392649;
0,0026228;-0,64598;0,61643;0,039208;
0,0026328;-0,644876;0,615384;0,0391491;
0,0026428;-0,643742;0,614307;0,0390882;
0,0026528;-0,642577;0,613201;0,0390253;
0,0026628;-0,641383;0,612065;0,0389604;
0,0026728;-0,640158;0,610899;0,0388935;
0,0026828;-0,638903;0,609704;0,0388245;
0,0026928;-0,637619;0,608479;0,0387536;
0,0027028;-0,636304;0,607224;0,0386807;
0,0027128;-0,634959;0,60594;0,0386059;
0,0027228;-0,633585;0,604626;0,038529;
0,0027328;-0,632181;0,603283;0,0384502;
0,0027428;-0,630747;0,60191;0,0383693;
0,0027528;-0,629284;0,600509;0,0382866;
0,0027628;-0,627791;0,599078;0,0382018;
0,0027728;-0,626268;0,597618;0,0381151;
0,0027828;-0,624716;0,596129;0,0380264;
0,0027928;-0,623135;0,594611;0,0379358;
0,0028028;-0,621525;0,593064;0,0378432;
0,0028128;-0,619885;0,591488;0,0377486;
0,0028228;-0,618216;0,589883;0,0376521;
0,0028328;-0,616519;0,58825;0,0375537;
0,0028428;-0,614792;0,586588;0,0374534;
0,0028528;-0,613036;0,584898;0,0373511;
0,0028628;-0,611252;0,583179;0,0372468;
0,0028728;-0,609439;0,581431;0,0371407;
0,0028828;-0,607597;0,579656;0,0370327;
0,0028928;-0,605727;0,577852;0,0369227;
0,0029028;-0,603829;0,57602;0,0368108;
0,0029128;-0,601902;0,57416;0,036697;
0,0029228;-0,599947;0,572273;0,0365814;
0,0029328;-0,597964;0,570357;0,0364638;
0,0029428;-0,595952;0,568413;0,0363444;
0,0029528;-0,593913;0,566442;0,036223;
0,0029628;-0,591846;0,564444;0,0360998;
0,0029728;-0,589751;0,562418;0,0359748;
0,0029828;-0,587628;0,560364;0,0358478;
0,0029928;-0,585478;0,558283;0,035719;
0,0030028;-0,583301;0,556175;0,0355884;
0,0030128;-0,581096;0,55404;0,0354559;
0,0030228;-0,578864;0,551878;0,0353216;
0,0030328;-0,576604;0,549689;0,0351854;
0,0030428;-0,574318;0,547474;0,0350474;
0,0030528;-0,572005;0,545231;0,0349076;
0,0030628;-0,569665;0,542962;0,034766;
0,0030728;-0,567298;0,540667;0,0346225;
0,0030828;-0,564905;0,538345;0,0344773;
0,0030928;-0,562485;0,535998;0,0343303;
0,0031028;-0,560039;0,533624;0,0341815;
0,0031128;-0,557566;0,531224;0,0340309;
0,0031228;-0,555068;0,528798;0,0338785;
0,0031328;-0,552543;0,526346;0,0337243;
0,0031428;-0,549993;0,523869;0,0335685;
0,0031528;-0,547417;0,521366;0,0334108;
0,0031628;-0,544815;0,518837;0,0332514;
0,0031728;-0,542187;0,516284;0,0330903;
0,0031828;-0,539535;0,513705;0,0329274;
0,0031928;-0,536857;0,511101;0,0327628;
0,0032028;-0,534154;0,508473;0,0325965;
0,0032128;-0,531425;0,505819;0,0324285;
0,0032228;-0,528672;0,503141;0,0322588;
0,0032328;-0,525895;0,500438;0,0320874;
0,0032428;-0,523092;0,497711;0,0319143;
0,0032528;-0,520266;0,494959;0,0317396;
0,0032628;-0,517414;0,492184;0,0315632;
0,0032728;-0,514539;0,489384;0,0313851;
0,0032828;-0,51164;0,486561;0,0312053;
0,0032928;-0,508716;0,483713;0,031024;
0,0033028;-0,505769;0,480843;0,0308409;
0,0033128;-0,502798;0,477948;0,0306563;
0,0033228;-0,499804;0,47503;0,0304701;
0,0033328;-0,496786;0,47209;0,0302822;
0,0033428;-0,493745;0,469126;0,0300927;
0,0033528;-0,490681;0,466139;0,0299017;
0,0033628;-0,487594;0,463129;0,0297091;
0,0033728;-0,484485;0,460097;0,0295148;
0,0033828;-0,481352;0,457042;0,0293191;
0,0033928;-0,478198;0,453965;0,0291218;
0,0034028;-0,47502;0,450865;0,0289229;
0,0034128;-0,471821;0,447744;0,0287225;
0,0034228;-0,4686;0,444601;0,0285205;
0,0034328;-0,465357;0,441436;0,0283171;
0,0034428;-0,462092;0,438249;0,0281121;
0,0034528;-0,458805;0,435041;0,0279057;
0,0034628;-0,455497;0,431812;0,0276978;
0,0034728;-0,452168;0,428561;0,0274883;
0,0034828;-0,448818;0,42529;0,0272774;
0,0034928;-0,445447;0,421997;0,0270651;
0,0035028;-0,442055;0,418684;0,0268513;
0,0035128;-0,438642;0,415351;0,0266361;
0,0035228;-0,435209;0,411997;0,0264194;
0,0035328;-0,431756;0,408623;0,0262013;
0,0035428;-0,428283;0,405229;0,0259818;
0,0035528;-0,424789;0,401815;0,0257609;
0,0035628;-0,421276;0,398381;0,0255387;
0,0035728;-0,417743;0,394928;0,025315;
0,0035828;-0,414191;0,391456;0,02509;
0,0035928;-0,41062;0,387964;0,0248636;
0,0036028;-0,407029;0,384453;0,0246359;
0,0036128;-0,40342;0,380923;0,0244068;
0,0036228;-0,399792;0,377375;0,0241764;
0,0036328;-0,396145;0,373808;0,0239448;
0,0036428;-0,39248;0,370223;0,0237118;
0,0036528;-0,388796;0,366619;0,0234775;
0,0036628;-0,385095;0,362998;0,0232419;
0,0036728;-0,381375;0,359358;0,0230051;
0,0036828;-0,377638;0,355701;0,022767;
0,0036928;-0,373883;0,352027;0,0225276;
0,0037028;-0,370111;0,348335;0,022287;
0,0037128;-0,366322;0,344626;0,0220452;
0,0037228;-0,362516;0,3409;0,0218022;
0,0037328;-0,358693;0,337157;0,021558;
0,0037428;-0,354854;0,333397;0,0213126;
0,0037528;-0,350998;0,329622;0,021066;
0,0037628;-0,347125;0,325829;0,0208183;
0,0037728;-0,343237;0,322021;0,0205694;
0,0037828;-0,339333;0,318197;0,0203193;
0,0037928;-0,335413;0,314357;0,0200681;
0,0038028;-0,331477;0,310502;0,0198158;
0,0038128;-0,327527;0,306631;0,0195624;
0,0038228;-0,323561;0,302746;0,0193079;
0,0038328;-0,31958;0,298845;0,0190523;
0,0038428;-0,315584;0,294929;0,0187957;
0,0038528;-0,311574;0,290999;0,018538;
0,0038628;-0,30755;0,287055;0,0182792;
0,0038728;-0,303511;0,283096;0,0180194;
0,0038828;-0,299458;0,279123;0,0177586;
0,0038928;-0,295392;0,275136;0,0174967;
0,0039028;-0,291311;0,271136;0,0172339;
0,0039128;-0,287218;0,267122;0,0169701;
0,0039228;-0,283111;0,263095;0,0167053;
0,0039328;-0,278992;0,259055;0,0164395;
0,0039428;-0,274859;0,255002;0,0161728;
0,0039528;-0,270714;0,250936;0,0159052;
0,0039628;-0,266556;0,246858;0,0156366;
0,0039728;-0,262386;0,242767;0,0153671;
0,0039828;-0,258205;0,238665;0,0150968;
0,0039928;-0,254011;0,23455;0,0148255;
0,0040028;-0,249806;0,230424;0,0145534;
0,0040128;-0,245589;0,226286;0,0142804;
0,0040228;-0,241361;0,222137;0,0140066;
0,0040328;-0,237122;0,217977;0,0137319;
0,0040428;-0,232872;0,213806;0,0134564;
0,0040528;-0,228612;0,209624;0,0131801;
0,0040628;-0,224341;0,205431;0,012903;
0,0040728;-0,22006;0,201229;0,0126251;
0,0040828;-0,215769;0,197016;0,0123465;
0,0040928;-0,211468;0,192793;0,0120671;
0,0041028;-0,207158;0,18856;0,011787;
0,0041128;-0,202838;0,184318;0,0115061;
0,0041228;-0,198509;0,180067;0,0112245;
0,0041328;-0,194172;0,175807;0,0109423;
0,0041428;-0,189825;0,171537;0,0106593;
0,0041528;-0,18547;0,167259;0,0103756;
0,0041628;-0,181106;0,162973;0,0100913;
0,0041728;-0,176734;0,158678;0,00980639;
0,0041828;-0,172355;0,154375;0,0095208;
0,0041928;-0,167967;0,150064;0,00923459;
0,0042028;-0,163572;0,145746;0,00894778;
0,0042128;-0,15917;0,14142;0,00866037;
0,0042228;-0,154761;0,137086;0,00837238;
0,0042328;-0,150345;0,132746;0,00808382;
0,0042428;-0,145922;0,128399;0,00779471;
0,0042528;-0,141493;0,124045;0,00750506;
0,0042628;-0,137057;0,119685;0,00721489;
0,0042728;-0,132616;0,115319;0,0069242;
0,0042828;-0,128168;0,110946;0,00663302;
0,0042928;-0,123715;0,106568;0,00634135;
0,0043028;-0,119257;0,102184;0,00604921;
0,0043128;-0,114793;0,0977947;0,00575662;
0,0043228;-0,110325;0,0934002;0,00546358;
0,0043328;-0,105851;0,0890008;0,00517011;
0,0043428;-0,101373;0,0845966;0,00487623;
0,0043528;-0,0968912;0,0801878;0,00458195;
0,0043628;-0,0924048;0,0757747;0,00428728;
0,0043728;-0,0879146;0,0713575;0,00399224;
0,0043828;-0,0834207;0,0669364;0,00369684;
0,0043928;-0,0789233;0,0625115;0,0034011;
0,0044028;-0,0744226;0,0580832;0,00310502;
0,0044128;-0,0699189;0,0536516;0,00280863;
0,0044228;-0,0654124;0,0492169;0,00251194;
0,0044328;-0,0609033;0,0447793;0,00221495;
0,0044428;-0,0563918;0,0403391;0,0019177;
0,0044528;-0,051878;0,0358964;0,00162018;
0,0044628;-0,0473623;0,0314516;0,00132241;
0,0044728;-0,0428449;0,0270047;0,00102442;
0,0044828;-0,0383259;0,022556;0,000726205;
0,0044928;-0,0338056;0,0181057;0,000427787;
0,0045028;-0,0292842;0,0136541;0,00012918;
0,0045128;-0,024762;0,00920123;-0,000169602;
0,0045228;-0,020239;0,00474747;-0,000468545;
0,0045328;-0,0157156;0,000292961;-0,000767635;
0,0045428;-0,0111919;-0,00416207;-0,00106686;
0,0045528;-0,00666826;-0,00861741;-0,0013662;
0,0045628;-0,00214478;-0,0130729;-0,00166564;
0,0045728;0,0023783;-0,0175282;-0,00196518;
0,0045828;0,00690075;-0,0219832;-0,00226479;
0,0045928;0,0114224;-0,0264376;-0,00256446;
0,0046028;0,0159429;-0,0308914;-0,00286418;
0,0046128;0,0204622;-0,0353441;-0,00316394;
0,0046228;0,02498;-0,0397957;-0,00346371;
0,0046328;0,0294961;-0,0442458;-0,00376348;
0,0046428;0,0340103;-0,0486944;-0,00406325;
0,0046528;0,0385223;-0,0531412;-0,00436299;
0,0046628;0,043032;-0,0575859;-0,0046627;
0,0046728;0,0475391;-0,0620284;-0,00496235;
0,0046828;0,0520434;-0,0664684;-0,00526193;
0,0046928;0,0565448;-0,0709058;-0,00556144;
0,0047028;0,0610429;-0,0753403;-0,00586084;
0,0047128;0,0655376;-0,0797717;-0,00616014;
0,0047228;0,0700286;-0,0841998;-0,00645932;
0,0047328;0,0745158;-0,0886244;-0,00675835;
0,0047428;0,078999;-0,0930453;-0,00705724;
0,0047528;0,0834778;-0,0974623;-0,00735595;
0,0047628;0,0879522;-0,101875;-0,00765449;
0,0047728;0,0924218;-0,106284;-0,00795283;
0,0047828;0,0968865;-0,110687;-0,00825096;
0,0047928;0,101346;-0,115086;-0,00854887;
0,0048028;0,1058;-0,119481;-0,00884654;
0,0048128;0,110249;-0,12387;-0,00914396;
0,0048228;0,114692;-0,128253;-0,00944112;
0,0048328;0,119129;-0,132631;-0,00973799;
0,0048428;0,123559;-0,137003;-0,0100346;
0,0048528;0,127984;-0,141369;-0,0103308;
